GI DURI KOSAMBI,CENGKARENG 1-2,1999
82,18A,64D
1,VR CENGKARENG 1,A,,kV,0.007545019,0.02065277,0,-16384,16383,1500,1,P
2,VS CENGKARENG 1,B,,kV,0.007548852,-0.1134224,0,-16384,16383,1500,1,P
3,VT CENGKARENG 1,C,,kV,0.007663306,0.8577232,0,-16384,16383,1500,1,P
4,A - CH04,,,mV,0.002518986,-6.87809,0,-16384,16383,1,1,P
5,IR CENGKARENG 1,A,,A,0.02566718,-0.915863,0,-16384,16383,2000,5,P
6,IS CENGKARENG 1,B,,A,0.02579441,-1.599319,0,-16384,16383,2000,5,P
7,IT CENGKARENG 1,C,,A,0.03165025,90.42783,0,-16384,16383,2000,5,P
8,IN CENGKARENG 1,,,A,0.01243013,7.438454,0,-16384,16383,2000,5,P
9,A - CH09,,,mA,0.0003539519,1.831198,0,-16384,16383,1,1,P
10,VR CENGKARENG 2,A,,kV,0.008120066,-9.196404,0,-16384,16383,1500,1,P
11,VS CENGKARENG 2,B,,kV,0.008170909,7.407471,0,-16384,16383,1500,1,P
12,VT CENGKARENG 2,C,,kV,0.008267969,3.539673,0,-16384,16383,1500,1,P
13,A - CH13,,,mV,0.002937762,-6.875624,0,-16384,16383,1,1,P
14,IR CENGKARENG 2,A,,A,0.0001487824,4.265628,0,-16384,16383,2000,5,P
15,IS CENGKARENG 2,B,,A,0.0005352075,1.21782,0,-16384,16383,2000,5,P
16,IT CENGKARENG 2,C,,A,0.0001493563,1.590488,0,-16384,16383,2000,5,P
17,IN CENGKARENG 2,,,A,0.0002381085,-0.2438083,0,-16384,16383,2000,5,P
18,A - CH18,,,mA,0.0003626434,4.417806,0,-16384,16383,1,1,P
1,MAIN PROT CKRG 1,,,0
2,CB OPEN CKRG 1,,,0
3,OCR OPRT CKRG 1,,,0
4,CB POLE DISCRPNCY CKRG 1,,,0
5,CARIER SEND CKRG 1,,,0
6,CARIER RECEIVE CKRG 1,,,0
7,TCS 1 FAIL CKRG 1,,,0
8,SF6 LOW ALARM CKRG 1,,,0
9,OIL LOW ALARM CKRG 1,,,0
10,D - CH10,,,0
11,D - CH11,,,0
12,D - CH12,,,0
13,D - CH13,,,0
14,D - CH14,,,0
15,D - CH15,,,0
16,D - CH16,,,0
17,D - CH17,,,0
18,D - CH18,,,0
19,D - CH19,,,0
20,D - CH20,,,0
21,D - CH21,,,0
22,D - CH22,,,0
23,D - CH23,,,0
24,D - CH24,,,0
25,D - CH25,,,0
26,D - CH26,,,0
27,D - CH27,,,0
28,D - CH28,,,0
29,D - CH29,,,0
30,D - CH30,,,0
31,D - CH31,,,0
32,D - CH32,,,0
33,MAIN PROT CKRG 2,,,0
34,CB OPEN CKRG 2,,,0
35,OCR OPRT CKRG 2,,,0
36,CB POLE DISCRPNCY CKRG 2,,,0
37,CARIER SEND CKRG 2,,,0
38,CARIER RECEIVE CKRG 2,,,0
39,TCS 1 FAIL CKRG 2,,,0
40,SF6 LOW ALARM CKRG 2,,,0
41,OIL LOW ALARM CKRG 2,,,0
42,D - CH42,,,0
43,D - CH43,,,0
44,D - CH44,,,0
45,D - CH45,,,0
46,D - CH46,,,0
47,D - CH47,,,0
48,D - CH48,,,0
49,D - CH49,,,0
50,D - CH50,,,0
51,D - CH51,,,0
52,D - CH52,,,0
53,D - CH53,,,0
54,D - CH54,,,0
55,D - CH55,,,0
56,D - CH56,,,0
57,D - CH57,,,0
58,D - CH58,,,0
59,D - CH59,,,0
60,D - CH60,,,0
61,D - CH61,,,0
62,D - CH62,,,0
63,D - CH63,,,0
64,D - CH64,,,0
50
1
25600,15360
18/04/2020,06:27:40.100294
18/04/2020,06:27:40.200294
ASCII
1
1,0,13683,-14476,442,0,12600,-15142,-296,255,2586,1753,-1553,-980,7021,4914,-1820,0,-3583,2100,0,0,0,0,0,0,0,0,0,0,0,0,0,0,0,0,0,0,0,0,0,0,0,0,0,0,0,0,0,0,0,0,0,1,0,1,0,0,0,0,0,0,0,0,0,0,0,0,0,0,0,0,0,0,0,0,0,0,0,0,0,0,0,0
2,39,13793,-14386,257,-2730,12724,-15066,-451,215,9484,1765,-1553,-990,-2340,3276,-3640,0,-4095,5461,0,0,0,0,0,0,0,0,0,0,0,0,0,0,0,0,0,0,0,0,0,0,0,0,0,0,0,0,0,0,0,0,0,1,0,1,0,0,0,0,0,0,0,0,0,0,0,0,0,0,0,0,0,0,0,0,0,0,0,0,0,0,0,0
3,78,13902,-14284,63,2730,12838,-15047,-620,333,9484,1778,-1545,-1009,2340,9829,-3640,-1638,-8191,-1260,0,0,0,0,0,0,0,0,0,0,0,0,0,0,0,0,0,0,0,0,0,0,0,0,0,0,0,0,0,0,0,0,0,1,0,1,0,0,0,0,0,0,0,0,0,0,0,0,0,0,0,0,0,0,0,0,0,0,0,0,0,0,0,0
4,117,14004,-14185,-130,-5461,13000,-14952,-790,255,2586,1793,-1545,-1024,7021,6553,-1137,-4914,-2559,2100,0,0,0,0,0,0,0,0,0,0,0,0,0,0,0,0,0,0,0,0,0,0,0,0,0,0,0,0,0,0,0,0,0,1,0,1,0,0,0,0,0,0,0,0,0,0,0,0,0,0,0,0,0,0,0,0,0,0,0,0,0,0,0,0
5,156,14105,-14071,-322,0,13176,-14875,-1033,235,-2586,1803,-1545,-1040,4680,3276,0,0,-1023,2100,0,0,0,0,0,0,0,0,0,0,0,0,0,0,0,0,0,0,0,0,0,0,0,0,0,0,0,0,0,0,0,0,0,1,0,1,0,0,0,0,0,0,0,0,0,0,0,0,0,0,0,0,0,0,0,0,0,0,0,0,0,0,0,0
6,195,14199,-13959,-519,-5461,13247,-14780,-1179,255,2586,1816,-1540,-1055,-2340,3276,-1820,0,-3071,1260,0,0,0,0,0,0,0,0,0,0,0,0,0,0,0,0,0,0,0,0,0,0,0,0,0,0,0,0,0,0,0,0,0,1,0,1,0,0,0,0,0,0,0,0,0,0,0,0,0,0,0,0,0,0,0,0,0,0,0,0,0,0,0,0
7,234,14294,-13842,-717,0,13409,-14627,-1376,255,-2586,1829,-1533,-1069,-2340,-1638,-2730,819,0,2100,0,0,0,0,0,0,0,0,0,0,0,0,0,0,0,0,0,0,0,0,0,0,0,0,0,0,0,0,0,0,0,0,0,1,0,1,0,0,0,0,0,0,0,0,0,0,0,0,0,0,0,0,0,0,0,0,0,0,0,0,0,0,0,0
8,273,14384,-13727,-918,-8191,13480,-14541,-1557,264,2586,1840,-1534,-1080,-2340,0,-1820,6553,-7679,2100,0,0,0,0,0,0,0,0,0,0,0,0,0,0,0,0,0,0,0,0,0,0,0,0,0,0,0,0,0,0,0,0,0,1,0,1,0,0,0,0,0,0,0,0,0,0,0,0,0,0,0,0,0,0,0,0,0,0,0,0,0,0,0,0
9,312,14476,-13601,-1112,10922,13647,-14465,-1708,235,-862,1854,-1525,-1095,-2340,3276,-2730,819,-6143,2940,0,0,0,0,0,0,0,0,0,0,0,0,0,0,0,0,0,0,0,0,0,0,0,0,0,0,0,0,0,0,0,0,0,1,0,1,0,0,0,0,0,0,0,0,0,0,0,0,0,0,0,0,0,0,0,0,0,0,0,0,0,0,0,0
10,351,14559,-13487,-1314,-5461,13742,-14313,-1954,235,9484,1866,-1525,-1110,0,4914,0,819,1023,2100,0,0,0,0,0,0,0,0,0,0,0,0,0,0,0,0,0,0,0,0,0,0,0,0,0,0,0,0,0,0,0,0,0,1,0,1,0,0,0,0,0,0,0,0,0,0,0,0,0,0,0,0,0,0,0,0,0,0,0,0,0,0,0,0
11,390,14647,-13361,-1503,-2730,13823,-14231,-2085,255,-3449,1879,-1520,-1125,-2340,-6553,-1820,-2457,4095,2100,0,0,0,0,0,0,0,0,0,0,0,0,0,0,0,0,0,0,0,0,0,0,0,0,0,0,0,0,0,0,0,0,0,1,0,1,0,0,0,0,0,0,0,0,0,0,0,0,0,0,0,0,0,0,0,0,0,0,0,0,0,0,0,0
12,429,14736,-13244,-1711,-5461,13932,-14093,-2271,274,-862,1895,-1515,-1139,0,3276,-3640,3276,-4095,2100,0,0,0,0,0,0,0,0,0,0,0,0,0,0,0,0,0,0,0,0,0,0,0,0,0,0,0,0,0,0,0,0,0,1,0,1,0,0,0,0,0,0,0,0,0,0,0,0,0,0,0,0,0,0,0,0,0,0,0,0,0,0,0,0
13,468,14822,-13121,-1889,0,14008,-13936,-2456,333,2586,1905,-1505,-1149,0,-4914,-1820,6553,0,2100,0,0,0,0,0,0,0,0,0,0,0,0,0,0,0,0,0,0,0,0,0,0,0,0,0,0,0,0,0,0,0,0,0,1,0,1,0,0,0,0,0,0,0,0,0,0,0,0,0,0,0,0,0,0,0,0,0,0,0,0,0,0,0,0
14,507,14903,-13000,-2086,2730,14142,-13826,-2656,215,9484,1915,-1505,-1164,-2340,3276,-910,0,-4095,2100,0,0,0,0,0,0,0,0,0,0,0,0,0,0,0,0,0,0,0,0,0,0,0,0,0,0,0,0,0,0,0,0,0,1,0,1,0,0,0,0,0,0,0,0,0,0,0,0,0,0,0,0,0,0,0,0,0,0,0,0,0,0,0,0
15,546,14986,-12878,-2272,-8191,14199,-13688,-2826,196,2586,1928,-1502,-1179,-2340,3276,-1820,6553,-2047,-4620,0,0,0,0,0,0,0,0,0,0,0,0,0,0,0,0,0,0,0,0,0,0,0,0,0,0,0,0,0,0,0,0,0,1,0,1,0,0,0,0,0,0,0,0,0,0,0,0,0,0,0,0,0,0,0,0,0,0,0,0,0,0,0,0
16,585,15063,-12749,-2461,0,14375,-13559,-3003,264,9484,1943,-1495,-1189,2340,-1638,-910,-5734,-4095,-2940,0,0,0,0,0,0,0,0,0,0,0,0,0,0,0,0,0,0,0,0,0,0,0,0,0,0,0,0,0,0,0,0,0,1,0,1,0,0,0,0,0,0,0,0,0,0,0,0,0,0,0,0,0,0,0,0,0,0,0,0,0,0,0,0
17,625,15140,-12623,-2655,-10922,14427,-13445,-3180,215,-4311,1953,-1494,-1208,-4680,7372,0,6553,-4095,-1260,0,0,0,0,0,0,0,0,0,0,0,0,0,0,0,0,0,0,0,0,0,0,0,0,0,0,0,0,0,0,0,0,0,1,0,1,0,0,0,0,0,0,0,0,0,0,0,0,0,0,0,0,0,0,0,0,0,0,0,0,0,0,0,0
18,664,15214,-12487,-2838,-8191,14503,-13282,-3404,176,-1724,1966,-1489,-1218,-2340,3276,-2958,0,-8191,8821,0,0,0,0,0,0,0,0,0,0,0,0,0,0,0,0,0,0,0,0,0,0,0,0,0,0,0,0,0,0,0,0,0,1,0,1,0,0,0,0,0,0,0,0,0,0,0,0,0,0,0,0,0,0,0,0,0,0,0,0,0,0,0,0
19,703,15285,-12356,-3038,-2730,14579,-13139,-3562,186,9484,1976,-1484,-1229,0,3276,-2730,-4914,-4095,8821,0,0,0,0,0,0,0,0,0,0,0,0,0,0,0,0,0,0,0,0,0,0,0,0,0,0,0,0,0,0,0,0,0,1,0,1,0,0,0,0,0,0,0,0,0,0,0,0,0,0,0,0,0,0,0,0,0,0,0,0,0,0,0,0
20,742,15348,-12214,-3220,0,14694,-13001,-3705,176,862,1986,-1477,-1244,0,4914,-3640,-4914,-4095,8821,0,0,0,0,0,0,0,0,0,0,0,0,0,0,0,0,0,0,0,0,0,0,0,0,0,0,0,0,0,0,0,0,0,1,0,1,0,0,0,0,0,0,0,0,0,0,0,0,0,0,0,0,0,0,0,0,0,0,0,0,0,0,0,0
21,781,15413,-12072,-3421,0,14713,-12853,-3975,127,2586,1996,-1475,-1259,0,3276,0,-1638,2047,-1260,0,0,0,0,0,0,0,0,0,0,0,0,0,0,0,0,0,0,0,0,0,0,0,0,0,0,0,0,0,0,0,0,0,1,0,1,0,0,0,0,0,0,0,0,0,0,0,0,0,0,0,0,0,0,0,0,0,0,0,0,0,0,0,0
22,820,15474,-11930,-3593,0,14808,-12696,-4090,215,-4311,2010,-1465,-1269,2340,-3276,-2730,-2457,-2047,3780,0,0,0,0,0,0,0,0,0,0,0,0,0,0,0,0,0,0,0,0,0,0,0,0,0,0,0,0,0,0,0,0,0,1,0,1,0,0,0,0,0,0,0,0,0,0,0,0,0,0,0,0,0,0,0,0,0,0,0,0,0,0,0,0
23,859,15534,-11788,-3796,-8191,14860,-12529,-4306,98,2586,2019,-1462,-1279,-2340,4914,0,-2457,-8191,7141,0,0,0,0,0,0,0,0,0,0,0,0,0,0,0,0,0,0,0,0,0,0,0,0,0,0,0,0,0,0,0,0,0,1,0,1,0,0,0,0,0,0,0,0,0,0,0,0,0,0,0,0,0,0,0,0,0,0,0,0,0,0,0,0
24,898,15591,-11640,-3971,0,14960,-12338,-4491,117,2586,2030,-1455,-1291,2340,-4095,0,3276,-3583,-4620,0,0,0,0,0,0,0,0,0,0,0,0,0,0,0,0,0,0,0,0,0,0,0,0,0,0,0,0,0,0,0,0,0,1,0,1,0,0,0,0,0,0,0,0,0,0,0,0,0,0,0,0,0,0,0,0,0,0,0,0,0,0,0,0
25,937,15645,-11497,-4170,-2730,14960,-12166,-4673,176,6035,2042,-1452,-1309,-2340,-1638,682,6553,-4095,2100,0,0,0,0,0,0,0,0,0,0,0,0,0,0,0,0,0,0,0,0,0,0,0,0,0,0,0,0,0,0,0,0,0,1,0,1,0,0,0,0,0,0,0,0,0,0,0,0,0,0,0,0,0,0,0,0,0,0,0,0,0,0,0,0
26,976,15700,-11356,-4347,-5461,14998,-12014,-4827,196,4311,2052,-1445,-1319,0,9829,-1592,-4914,-6143,2100,0,0,0,0,0,0,0,0,0,0,0,0,0,0,0,0,0,0,0,0,0,0,0,0,0,0,0,0,0,0,0,0,0,1,0,1,0,0,0,0,0,0,0,0,0,0,0,0,0,0,0,0,0,0,0,0,0,0,0,0,0,0,0,0
27,1015,15753,-11212,-4532,-8191,15117,-11928,-5039,137,9484,2067,-1440,-1331,-2340,6553,-1820,6553,-4095,-1260,0,0,0,0,0,0,0,0,0,0,0,0,0,0,0,0,0,0,0,0,0,0,0,0,0,0,0,0,0,0,0,0,0,1,0,1,0,0,0,0,0,0,0,0,0,0,0,0,0,0,0,0,0,0,0,0,0,0,0,0,0,0,0,0
28,1054,15808,-11066,-4710,-8191,15112,-11747,-5193,137,2586,2074,-1435,-1339,0,3276,-1820,3276,-2047,2100,0,0,0,0,0,0,0,0,0,0,0,0,0,0,0,0,0,0,0,0,0,0,0,0,0,0,0,0,0,0,0,0,0,1,0,1,0,0,0,0,0,0,0,0,0,0,0,0,0,0,0,0,0,0,0,0,0,0,0,0,0,0,0,0
29,1093,15857,-10923,-4892,-8191,15150,-11565,-5332,19,10347,2088,-1424,-1356,-2340,-1638,-2958,-1638,-4095,2100,0,0,0,0,0,0,0,0,0,0,0,0,0,0,0,0,0,0,0,0,0,0,0,0,0,0,0,0,0,0,0,0,0,1,0,1,0,0,0,0,0,0,0,0,0,0,0,0,0,0,0,0,0,0,0,0,0,0,0,0,0,0,0,0
30,1132,15906,-10777,-5077,-10922,15226,-11460,-5478,58,9484,2093,-1422,-1367,-2340,-1638,-2730,-5734,-7167,3780,0,0,0,0,0,0,0,0,0,0,0,0,0,0,0,0,0,0,0,0,0,0,0,0,0,0,0,0,0,0,0,0,0,1,0,1,0,0,0,0,0,0,0,0,0,0,0,0,0,0,0,0,0,0,0,0,0,0,0,0,0,0,0,0
31,1171,15955,-10628,-5255,-10922,15236,-11289,-5706,176,2586,2105,-1414,-1376,-2340,3276,-1820,-3276,0,-2940,0,0,0,0,0,0,0,0,0,0,0,0,0,0,0,0,0,0,0,0,0,0,0,0,0,0,0,0,0,0,0,0,0,1,0,1,0,0,0,0,0,0,0,0,0,0,0,0,0,0,0,0,0,0,0,0,0,0,0,0,0,0,0,0
32,1210,16005,-10476,-5438,-5461,15322,-11117,-5826,176,862,2113,-1409,-1388,-2340,3276,-4550,-9010,-4095,8821,0,0,0,0,0,0,0,0,0,0,0,0,0,0,0,0,0,0,0,0,0,0,0,0,0,0,0,0,0,0,0,0,0,1,0,1,0,0,0,0,0,0,0,0,0,0,0,0,0,0,0,0,0,0,0,0,0,0,0,0,0,0,0,0
33,1250,16044,-10323,-5621,-8191,15326,-10964,-6003,88,4311,2128,-1404,-1398,2340,3276,-1820,1638,-2047,5461,0,0,0,0,0,0,0,0,0,0,0,0,0,0,0,0,0,0,0,0,0,0,0,0,0,0,0,0,0,0,0,0,0,1,0,1,0,0,0,0,0,0,0,0,0,0,0,0,0,0,0,0,0,0,0,0,0,0,0,0,0,0,0,0
34,1289,16090,-10168,-5810,0,15341,-10812,-6138,98,2586,2138,-1399,-1411,-2340,3276,-1820,1638,-4095,8821,0,0,0,0,0,0,0,0,0,0,0,0,0,0,0,0,0,0,0,0,0,0,0,0,0,0,0,0,0,0,0,0,0,1,0,1,0,0,0,0,0,0,0,0,0,0,0,0,0,0,0,0,0,0,0,0,0,0,0,0,0,0,0,0
35,1328,16125,-10006,-5988,-8191,15360,-10659,-6304,78,9484,2148,-1389,-1423,7021,-3276,-4095,-1638,1535,10501,0,0,0,0,0,0,0,0,0,0,0,0,0,0,0,0,0,0,0,0,0,0,0,0,0,0,0,0,0,0,0,0,0,1,0,1,0,0,0,0,0,0,0,0,0,0,0,0,0,0,0,0,0,0,0,0,0,0,0,0,0,0,0,0
36,1367,16162,-9842,-6182,0,15417,-10507,-6466,19,4311,2155,-1389,-1436,-2340,-6553,-1820,-6553,-4095,2100,0,0,0,0,0,0,0,0,0,0,0,0,0,0,0,0,0,0,0,0,0,0,0,0,0,0,0,0,0,0,0,0,0,1,0,1,0,0,0,0,0,0,0,0,0,0,0,0,0,0,0,0,0,0,0,0,0,0,0,0,0,0,0,0
37,1406,16196,-9679,-6358,-8191,15493,-10335,-6589,98,-4311,2169,-1379,-1438,7021,4095,-3640,3276,-4095,12182,0,0,0,0,0,0,0,0,0,0,0,0,0,0,0,0,0,0,0,0,0,0,0,0,0,0,0,0,0,0,0,0,0,1,0,1,0,0,0,0,0,0,0,0,0,0,0,0,0,0,0,0,0,0,0,0,0,0,0,0,0,0,0,0
38,1445,16228,-9513,-6553,-10922,15498,-10239,-6739,19,6035,2175,-1374,-1453,-2340,3276,-1820,3276,-4095,2100,0,0,0,0,0,0,0,0,0,0,0,0,0,0,0,0,0,0,0,0,0,0,0,0,0,0,0,0,0,0,0,0,0,1,0,1,0,0,0,0,0,0,0,0,0,0,0,0,0,0,0,0,0,0,0,0,0,0,0,0,0,0,0,0
39,1484,16257,-9349,-6722,-5461,15540,-10096,-6882,19,-862,2184,-1364,-1466,-2340,-1638,0,-819,-2047,-2940,0,0,0,0,0,0,0,0,0,0,0,0,0,0,0,0,0,0,0,0,0,0,0,0,0,0,0,0,0,0,0,0,0,1,0,1,0,0,0,0,0,0,0,0,0,0,0,0,0,0,0,0,0,0,0,0,0,0,0,0,0,0,0,0
40,1523,16281,-9181,-6916,0,15569,-9968,-6998,-98,2586,2194,-1359,-1473,2340,-3276,-910,-3276,-4095,2100,0,0,0,0,0,0,0,0,0,0,0,0,0,0,0,0,0,0,0,0,0,0,0,0,0,0,0,0,0,0,0,0,0,1,0,1,0,0,0,0,0,0,0,0,0,0,0,0,0,0,0,0,0,0,0,0,0,0,0,0,0,0,0,0
41,1562,16306,-9012,-7078,0,15569,-9782,-7187,19,3449,2204,-1353,-1488,0,-6553,0,-1638,0,6301,0,0,0,0,0,0,0,0,0,0,0,0,0,0,0,0,0,0,0,0,0,0,0,0,0,0,0,0,0,0,0,0,0,1,0,1,0,0,0,0,0,0,0,0,0,0,0,0,0,0,0,0,0,0,0,0,0,0,0,0,0,0,0,0
42,1601,16322,-8851,-7265,-10922,15664,-9639,-7295,-39,9484,2214,-1344,-1498,-2340,3276,-3185,0,-4095,2100,0,0,0,0,0,0,0,0,0,0,0,0,0,0,0,0,0,0,0,0,0,0,0,0,0,0,0,0,0,0,0,0,0,1,0,1,0,0,0,0,0,0,0,0,0,0,0,0,0,0,0,0,0,0,0,0,0,0,0,0,0,0,0,0
43,1640,16337,-8684,-7439,-8191,15740,-9515,-7441,78,9484,2221,-1341,-1507,2340,-3276,-910,-3276,-7167,2940,0,0,0,0,0,0,0,0,0,0,0,0,0,0,0,0,0,0,0,0,0,0,0,0,0,0,0,0,0,0,0,0,0,1,0,1,0,0,0,0,0,0,0,0,0,0,0,0,0,0,0,0,0,0,0,0,0,0,0,0,0,0,0,0
44,1679,16355,-8513,-7596,-5461,15783,-9386,-7607,-58,9484,2230,-1334,-1513,0,3276,-2958,0,-6143,2100,0,0,0,0,0,0,0,0,0,0,0,0,0,0,0,0,0,0,0,0,0,0,0,0,0,0,0,0,0,0,0,0,0,1,0,1,0,0,0,0,0,0,0,0,0,0,0,0,0,0,0,0,0,0,0,0,0,0,0,0,0,0,0,0
45,1718,16361,-8345,-7784,-5461,15745,-9286,-7773,19,9484,2237,-1326,-1525,-2340,819,-3185,6553,-4095,-2100,0,0,0,0,0,0,0,0,0,0,0,0,0,0,0,0,0,0,0,0,0,0,0,0,0,0,0,0,0,0,0,0,0,1,0,1,0,0,0,0,0,0,0,0,0,0,0,0,0,0,0,0,0,0,0,0,0,0,0,0,0,0,0,0
46,1757,16366,-8171,-7935,-10922,15802,-9133,-7923,-39,4311,2241,-1319,-1533,0,-1638,-1365,819,-4095,8821,0,0,0,0,0,0,0,0,0,0,0,0,0,0,0,0,0,0,0,0,0,0,0,0,0,0,0,0,0,0,0,0,0,1,0,1,0,0,0,0,0,0,0,0,0,0,0,0,0,0,0,0,0,0,0,0,0,0,0,0,0,0,0,0
47,1796,16366,-7996,-8113,-5461,15835,-8976,-8081,-127,-862,2250,-1314,-1543,-2340,4095,-4550,-3276,-4095,-7141,0,0,0,0,0,0,0,0,0,0,0,0,0,0,0,0,0,0,0,0,0,0,0,0,0,0,0,0,0,0,0,0,0,1,0,1,0,0,0,0,0,0,0,0,0,0,0,0,0,0,0,0,0,0,0,0,0,0,0,0,0,0,0,0
48,1835,16366,-7821,-8270,0,15845,-8852,-8224,58,-7760,2260,-1304,-1548,0,3276,0,1638,-10239,-2100,0,0,0,0,0,0,0,0,0,0,0,0,0,0,0,0,0,0,0,0,0,0,0,0,0,0,0,0,0,0,0,0,0,1,0,1,0,0,0,0,0,0,0,0,0,0,0,0,0,0,0,0,0,0,0,0,0,0,0,0,0,0,0,0
49,1875,16362,-7641,-8442,-10922,15931,-8675,-8343,-19,2586,2265,-1299,-1563,0,0,-2730,0,-6143,-4620,0,0,0,0,0,0,0,0,0,0,0,0,0,0,0,0,0,0,0,0,0,0,0,0,0,0,0,0,0,0,0,0,0,1,0,1,0,0,0,0,0,0,0,0,0,0,0,0,0,0,0,0,0,0,0,0,0,0,0,0,0,0,0,0
50,1914,16350,-7460,-8610,-5461,15959,-8599,-8455,19,-4311,2274,-1292,-1570,-2340,-6553,0,-6553,-2047,-4620,0,0,0,0,0,0,0,0,0,0,0,0,0,0,0,0,0,0,0,0,0,0,0,0,0,0,0,0,0,0,0,0,0,1,0,1,0,0,0,0,0,0,0,0,0,0,0,0,0,0,0,0,0,0,0,0,0,0,0,0,0,0,0,0
51,1953,16339,-7272,-8772,-8191,15997,-8446,-8640,-117,9484,2280,-1284,-1578,0,-2457,-2730,819,-4095,2100,0,0,0,0,0,0,0,0,0,0,0,0,0,0,0,0,0,0,0,0,0,0,0,0,0,0,0,0,0,0,0,0,0,1,0,1,0,0,0,0,0,0,0,0,0,0,0,0,0,0,0,0,0,0,0,0,0,0,0,0,0,0,0,0
52,1992,16324,-7089,-8950,-10922,16007,-8255,-8764,-98,2586,2287,-1279,-1588,-2340,3276,-3640,-3276,-3583,-1260,0,0,0,0,0,0,0,0,0,0,0,0,0,0,0,0,0,0,0,0,0,0,0,0,0,0,0,0,0,0,0,0,0,1,0,1,0,0,0,0,0,0,0,0,0,0,0,0,0,0,0,0,0,0,0,0,0,0,0,0,0,0,0,0
53,2031,16307,-6897,-9106,0,16116,-8160,-8914,19,9484,2296,-1263,-1588,-2340,6553,-1365,-3276,0,7141,0,0,0,0,0,0,0,0,0,0,0,0,0,0,0,0,0,0,0,0,0,0,0,0,0,0,0,0,0,0,0,0,0,1,0,1,0,0,0,0,0,0,0,0,0,0,0,0,0,0,0,0,0,0,0,0,0,0,0,0,0,0,0,0
54,2070,16284,-6712,-9279,-10922,16121,-8026,-9053,-78,-862,2301,-1262,-1602,-2340,819,0,-3276,-7167,8821,0,0,0,0,0,0,0,0,0,0,0,0,0,0,0,0,0,0,0,0,0,0,0,0,0,0,0,0,0,0,0,0,0,1,0,1,0,0,0,0,0,0,0,0,0,0,0,0,0,0,0,0,0,0,0,0,0,0,0,0,0,0,0,0
55,2109,16262,-6526,-9427,-10922,16102,-7874,-9226,-98,-11209,2311,-1253,-1607,2340,0,-2730,-1638,-4095,2100,0,0,0,0,0,0,0,0,0,0,0,0,0,0,0,0,0,0,0,0,0,0,0,0,0,0,0,0,0,0,0,0,0,1,0,1,0,0,0,0,0,0,0,0,0,0,0,0,0,0,0,0,0,0,0,0,0,0,0,0,0,0,0,0
56,2148,16240,-6340,-9601,-8191,16102,-7716,-9303,-117,-4311,2313,-1243,-1617,-2340,3276,-3640,-1638,-2047,3780,0,0,0,0,0,0,0,0,0,0,0,0,0,0,0,0,0,0,0,0,0,0,0,0,0,0,0,0,0,0,0,0,0,1,0,1,0,0,0,0,0,0,0,0,0,0,0,0,0,0,0,0,0,0,0,0,0,0,0,0,0,0,0,0
57,2187,16213,-6154,-9740,0,16178,-7569,-9458,-176,9484,2321,-1236,-1622,2340,-6553,-2275,6553,1023,8821,0,0,0,0,0,0,0,0,0,0,0,0,0,0,0,0,0,0,0,0,0,0,0,0,0,0,0,0,0,0,0,0,0,1,0,1,0,0,0,0,0,0,0,0,0,0,0,0,0,0,0,0,0,0,0,0,0,0,0,0,0,0,0,0
58,2226,16180,-5969,-9904,-10922,16178,-7435,-9612,-58,9484,2326,-1228,-1632,-2340,-3276,-910,0,-4095,2100,0,0,0,0,0,0,0,0,0,0,0,0,0,0,0,0,0,0,0,0,0,0,0,0,0,0,0,0,0,0,0,0,0,1,0,1,0,0,0,0,0,0,0,0,0,0,0,0,0,0,0,0,0,0,0,0,0,0,0,0,0,0,0,0
59,2265,16148,-5787,-10049,-5461,16183,-7263,-9766,-176,5173,2334,-1223,-1636,4680,4914,0,0,-6655,-420,0,0,0,0,0,0,0,0,0,0,0,0,0,0,0,0,0,0,0,0,0,0,0,0,0,0,0,0,0,0,0,0,0,1,0,1,0,0,0,0,0,0,0,0,0,0,0,0,0,0,0,0,0,0,0,0,0,0,0,0,0,0,0,0
60,2304,16112,-5596,-10196,0,16206,-7092,-9886,-196,2586,2341,-1212,-1637,7021,-819,-1820,6553,-2559,-2940,0,0,0,0,0,0,0,0,0,0,0,0,0,0,0,0,0,0,0,0,0,0,0,0,0,0,0,0,0,0,0,0,0,1,0,1,0,0,0,0,0,0,0,0,0,0,0,0,0,0,0,0,0,0,0,0,0,0,0,0,0,0,0,0
61,2343,16073,-5411,-10347,-5461,16221,-6929,-10032,-137,-2586,2344,-1202,-1647,2340,3276,-910,-3276,-4095,-1260,0,0,0,0,0,0,0,0,0,0,0,0,0,0,0,0,0,0,0,0,0,0,0,0,0,0,0,0,0,0,0,0,0,1,0,1,0,0,0,0,0,0,0,0,0,0,0,0,0,0,0,0,0,0,0,0,0,0,0,0,0,0,0,0
62,2382,16032,-5220,-10487,-5461,16254,-6805,-10167,-117,-4311,2352,-1198,-1652,0,0,-2730,6553,-5119,-4620,0,0,0,0,0,0,0,0,0,0,0,0,0,0,0,0,0,0,0,0,0,0,0,0,0,0,0,0,0,0,0,0,0,1,0,1,0,0,0,0,0,0,0,0,0,0,0,0,0,0,0,0,0,0,0,0,0,0,0,0,0,0,0,0
63,2421,15994,-5032,-10643,-5461,16192,-6653,-10290,-137,12933,2352,-1190,-1663,-2340,9829,-3640,1638,-4095,4620,0,0,0,0,0,0,0,0,0,0,0,0,0,0,0,0,0,0,0,0,0,0,0,0,0,0,0,0,0,0,0,0,0,1,0,1,0,0,0,0,0,0,0,0,0,0,0,0,0,0,0,0,0,0,0,0,0,0,0,0,0,0,0,0
64,2460,15945,-4838,-10781,-5461,16225,-6443,-10433,-196,9484,2357,-1183,-1665,-2340,9829,-1820,-3276,0,8821,0,0,0,0,0,0,0,0,0,0,0,0,0,0,0,0,0,0,0,0,0,0,0,0,0,0,0,0,0,0,0,0,0,1,0,1,0,0,0,0,0,0,0,0,0,0,0,0,0,0,0,0,0,0,0,0,0,0,0,0,0,0,0,0
65,2500,15895,-4641,-10940,-5461,16178,-6348,-10568,-98,3449,2362,-1173,-1677,-2340,0,-682,-819,-8191,2100,0,0,0,0,0,0,0,0,0,0,0,0,0,0,0,0,0,0,0,0,0,0,0,0,0,0,0,0,0,0,0,0,0,1,0,1,0,0,0,0,0,0,0,0,0,0,0,0,0,0,0,0,0,0,0,0,0,0,0,0,0,0,0,0
66,2539,15851,-4450,-11075,-8191,16178,-6157,-10707,-117,-1724,2367,-1167,-1677,7021,4914,-2958,-2457,0,2940,0,0,0,0,0,0,0,0,0,0,0,0,0,0,0,0,0,0,0,0,0,0,0,0,0,0,0,0,0,0,0,0,0,1,0,1,0,0,0,0,0,0,0,0,0,0,0,0,0,0,0,0,0,0,0,0,0,0,0,0,0,0,0,0
67,2578,15799,-4258,-11239,0,16145,-5952,-10830,-294,2586,2368,-1158,-1687,-2340,13106,-1820,0,-4095,2940,0,0,0,0,0,0,0,0,0,0,0,0,0,0,0,0,0,0,0,0,0,0,0,0,0,0,0,0,0,0,0,0,0,1,0,1,0,0,0,0,0,0,0,0,0,0,0,0,0,0,0,0,0,0,0,0,0,0,0,0,0,0,0,0
68,2617,15753,-4059,-11366,2730,16178,-5833,-10927,-294,-3449,2374,-1148,-1687,0,-6553,-1820,-4914,-1535,-4620,0,0,0,0,0,0,0,0,0,0,0,0,0,0,0,0,0,0,0,0,0,0,0,0,0,0,0,0,0,0,0,0,0,1,0,1,0,0,0,0,0,0,0,0,0,0,0,0,0,0,0,0,0,0,0,0,0,0,0,0,0,0,0,0
69,2656,15701,-3868,-11522,0,16102,-5604,-11058,-196,2586,2378,-1140,-1695,2340,0,-1820,-6553,-4095,-1260,0,0,0,0,0,0,0,0,0,0,0,0,0,0,0,0,0,0,0,0,0,0,0,0,0,0,0,0,0,0,0,0,0,1,0,1,0,0,0,0,0,0,0,0,0,0,0,0,0,0,0,0,0,0,0,0,0,0,0,0,0,0,0,0
70,2695,15649,-3678,-11652,0,16102,-5432,-11208,-255,4311,2382,-1130,-1697,7021,3276,227,2457,-2047,-3780,0,0,0,0,0,0,0,0,0,0,0,0,0,0,0,0,0,0,0,0,0,0,0,0,0,0,0,0,0,0,0,0,0,1,0,1,0,0,0,0,0,0,0,0,0,0,0,0,0,0,0,0,0,0,0,0,0,0,0,0,0,0,0,0
71,2734,15590,-3491,-11808,-5461,16030,-5222,-11362,-245,-1724,2392,-1128,-1707,-2340,-3276,-2730,-1638,-6143,7141,0,0,0,0,0,0,0,0,0,0,0,0,0,0,0,0,0,0,0,0,0,0,0,0,0,0,0,0,0,0,0,0,0,1,0,1,0,0,0,0,0,0,0,0,0,0,0,0,0,0,0,0,0,0,0,0,0,0,0,0,0,0,0,0
72,2773,15539,-3297,-11932,-2730,15964,-5074,-11501,-294,-1724,2392,-1117,-1707,7021,3276,1820,-6553,-2047,10501,0,0,0,0,0,0,0,0,0,0,0,0,0,0,0,0,0,0,0,0,0,0,0,0,0,0,0,0,0,0,0,0,0,1,0,1,0,0,0,0,0,0,0,0,0,0,0,0,0,0,0,0,0,0,0,0,0,0,0,0,0,0,0,0
73,2812,15479,-3111,-12083,-8191,15969,-4869,-11586,-372,9484,2392,-1112,-1717,-2340,3276,-1820,0,-7167,2100,0,0,0,0,0,0,0,0,0,0,0,0,0,0,0,0,0,0,0,0,0,0,0,0,0,0,0,0,0,0,0,0,0,1,0,1,0,0,0,0,0,0,0,0,0,0,0,0,0,0,0,0,0,0,0,0,0,0,0,0,0,0,0,0
74,2851,15419,-2920,-12201,-2730,15892,-4669,-11709,-294,2586,2396,-1102,-1719,-2340,9829,-4550,-3276,-2047,5461,0,0,0,0,0,0,0,0,0,0,0,0,0,0,0,0,0,0,0,0,0,0,0,0,0,0,0,0,0,0,0,0,0,1,0,1,0,0,0,0,0,0,0,0,0,0,0,0,0,0,0,0,0,0,0,0,0,0,0,0,0,0,0,0
