MiCOM           ,1,1997
44,12A,32D
1,VA              ,,,V,13.078706,0,0,-32768,32767,1,1,S
2,VB              ,,,V,13.078706,0,0,-32768,32767,1,1,S
3,VC              ,,,V,13.078706,0,0,-32768,32767,1,1,S
4,IA              ,,,A,2.762230,0,0,-32768,32767,1,1,S
5,IB              ,,,A,2.762230,0,0,-32768,32767,1,1,S
6,IC              ,,,A,2.762230,0,0,-32768,32767,1,1,S
7,IN              ,,,A,2.762230,0,0,-32768,32767,1,1,S
8,IN Sensitive    ,,,A,0.086306,0,0,-32768,32767,1,1,S
9,V Checksync     ,,,V,13.078706,0,0,-32768,32767,1,1,S
10,IA              ,,,A,2.762230,0,0,-32768,32767,1,1,S
11,IB              ,,,A,2.762230,0,0,-32768,32767,1,1,S
12,IC              ,,,A,2.762230,0,0,-32768,32767,1,1,S
1,Any Trip        ,,,0
2,Zone 2 A Start  ,,,0
3,Zone 2 B Start  ,,,0
4,Zone 2 C Start  ,,,0
5,Zone 2 N Start  ,,,0
6,Zone 3 A Start  ,,,0
7,Zone 3 B Start  ,,,0
8,Zone 3 C Start  ,,,0
9,Zone 3 N Start  ,,,0
10,Output R10      ,,,0
11,Output R11      ,,,0
12,Output R12      ,,,0
13,Output R13      ,,,0
14,Output R14      ,,,0
15,Output R15      ,,,0
16,Output R16      ,,,0
17,Input L1        ,,,0
18,Input L2        ,,,0
19,Input L3        ,,,0
20,Input L4        ,,,0
21,Input L5        ,,,0
22,Input L6        ,,,0
23,Input L7        ,,,0
24,Input L8        ,,,0
25,Input L9        ,,,0
26,Input L10       ,,,0
27,Input L11       ,,,0
28,Input L12       ,,,0
29,Input L13       ,,,0
30,Input L14       ,,,0
31,Input L15       ,,,0
32,Input L16       ,,,0
50
0
0,   3600
26/08/2020,01:50:10.375000
26/08/2020,01:50:10.872000
ASCII
1
   1,         0,  6851, -8932,  2031,     1,     0,     4,     6,    12,  8136,     1,     0,     4,0,0,0,0,0,0,0,0,0,0,0,0,0,0,0,0,0,1,0,0,0,0,0,0,0,0,0,0,0,0,0,0
   2,       417,  7614, -8488,   821,     0,     3,     4,     7,    12,  7435,     0,     3,     4,0,0,0,0,0,0,0,0,0,0,0,0,0,0,0,0,0,1,0,0,0,0,0,0,0,0,0,0,0,0,0,0
   3,       834,  8242, -7900,  -403,     1,     1,     3,     5,    10,  6660,     1,     1,     3,0,0,0,0,0,0,0,0,0,0,0,0,0,0,0,0,0,1,0,0,0,0,0,0,0,0,0,0,0,0,0,0
   4,      1251,  8734, -7177, -1622,     1,     0,     2,     3,     6,  5805,     1,     0,     2,0,0,0,0,0,0,0,0,0,0,0,0,0,0,0,0,0,1,0,0,0,0,0,0,0,0,0,0,0,0,0,0
   5,      1668,  9076, -6327, -2809,     1,     0,     3,     4,     3,  4848,     1,     0,     3,0,0,0,0,0,0,0,0,0,0,0,0,0,0,0,0,0,1,0,0,0,0,0,0,0,0,0,0,0,0,0,0
   6,      2085,  9260, -5372, -3948,     1,     1,     3,     5,     5,  3826,     1,     1,     3,0,0,0,0,0,0,0,0,0,0,0,0,0,0,0,0,0,1,0,0,0,0,0,0,0,0,0,0,0,0,0,0
   7,      2502,  9288, -4326, -5022,     1,     0,     3,     5,     7,  2718,     1,     0,     3,0,0,0,0,0,0,0,0,0,0,0,0,0,0,0,0,0,1,0,0,0,0,0,0,0,0,0,0,0,0,0,0
   8,      2919,  9156, -3204, -6009,     1,     1,     3,     5,     6,  1536,     1,     1,     3,0,0,0,0,0,0,0,0,0,0,0,0,0,0,0,0,0,1,0,0,0,0,0,0,0,0,0,0,0,0,0,0
   9,      3336,  8869, -2026, -6894,     1,     1,     3,     5,     9,   348,     1,     1,     3,0,0,0,0,0,0,0,0,0,0,0,0,0,0,0,0,0,1,0,0,0,0,0,0,0,0,0,0,0,0,0,0
  10,      3753,  8432,  -814, -7662,     1,     0,     3,     4,    12,  -868,     1,     0,     3,0,0,0,0,0,0,0,0,0,0,0,0,0,0,0,0,0,1,0,0,0,0,0,0,0,0,0,0,0,0,0,0
  11,      4170,  7848,   414, -8298,     1,     0,     3,     4,    15, -2076,     1,     0,     3,0,0,0,0,0,0,0,0,0,0,0,0,0,0,0,0,0,1,0,0,0,0,0,0,0,0,0,0,0,0,0,0
  12,      4587,  7130,  1630, -8794,     1,     0,     3,     3,    15, -3234,     1,     0,     3,0,0,0,0,0,0,0,0,0,0,0,0,0,0,0,0,0,1,0,0,0,0,0,0,0,0,0,0,0,0,0,0
  13,      5004,  6288,  2815, -9138,     1,     1,     3,     6,    11, -4323,     1,     1,     3,0,0,0,0,0,0,0,0,0,0,0,0,0,0,0,0,0,1,0,0,0,0,0,0,0,0,0,0,0,0,0,0
  14,      5421,  5337,  3952, -9326,     2,     2,     3,     7,     1, -5321,     2,     2,     3,0,0,0,0,0,0,0,0,0,0,0,0,0,0,0,0,0,1,0,0,0,0,0,0,0,0,0,0,0,0,0,0
  15,      5838,  4294,  5021, -9358,     0,    -1,     1,     0,    -8, -6278,     0,    -1,     1,0,0,0,0,0,0,0,0,0,0,0,0,0,0,0,0,0,1,0,0,0,0,0,0,0,0,0,0,0,0,0,0
  16,      6255,  3183,  6009, -9225,     1,    -1,     4,     4,   -10, -7144,     1,    -1,     4,0,0,0,0,0,0,0,0,0,0,0,0,0,0,0,0,0,1,0,0,0,0,0,0,0,0,0,0,0,0,0,0
  17,      6672,  2014,  6897, -8935,     1,     0,     2,     3,    -6, -7802,     1,     0,     2,0,0,0,0,0,0,0,0,0,0,0,0,0,0,0,0,0,1,0,0,0,0,0,0,0,0,0,0,0,0,0,0
  18,      7089,   813,  7664, -8492,     2,     2,     2,     6,    -1, -8319,     2,     2,     2,0,0,0,0,0,0,0,0,0,0,0,0,0,0,0,0,0,1,0,0,0,0,0,0,0,0,0,0,0,0,0,0
  19,      7506,  -404,  8299, -7902,     2,     1,     3,     7,     5, -8743,     2,     1,     3,0,0,0,0,0,0,0,0,0,0,0,0,0,0,0,0,0,1,0,0,0,0,0,0,0,0,0,0,0,0,0,0
  20,      7923, -1614,  8793, -7179,     1,     1,     3,     6,    11, -9036,     1,     1,     3,0,0,0,0,0,0,0,0,0,0,0,0,0,0,0,0,0,1,0,0,0,0,0,0,0,0,0,0,0,0,0,0
  21,      8340, -2795,  9137, -6330,     1,     0,     4,     5,    17, -9178,     1,     0,     4,0,0,0,0,0,0,0,0,0,0,0,0,0,0,0,0,0,1,0,0,0,0,0,0,0,0,0,0,0,0,0,0
  22,      8757, -3928,  9324, -5377,     0,     0,     3,     3,    19, -9161,     0,     0,     3,0,0,0,0,0,0,0,0,0,0,0,0,0,0,0,0,0,1,0,0,0,0,0,0,0,0,0,0,0,0,0,0
  23,      9174, -4994,  9351, -4329,     0,     0,     3,     3,    12, -8991,     0,     0,     3,0,0,0,0,0,0,0,0,0,0,0,0,0,0,0,0,0,1,0,0,0,0,0,0,0,0,0,0,0,0,0,0
  24,      9591, -5971,  9221, -3205,     1,     1,     4,     6,     3, -8671,     1,     1,     4,0,0,0,0,0,0,0,0,0,0,0,0,0,0,0,0,0,1,0,0,0,0,0,0,0,0,0,0,0,0,0,0
  25,     10008, -6852,  8929, -2028,     0,    -1,     2,     0,    -2, -8147,     0,    -1,     2,0,0,0,0,0,0,0,0,0,0,0,0,0,0,0,0,0,1,0,0,0,0,0,0,0,0,0,0,0,0,0,0
  26,     10425, -7612,  8487,  -811,     1,     1,     3,     6,     1, -7443,     1,     1,     3,0,0,0,0,0,0,0,0,0,0,0,0,0,0,0,0,0,1,0,0,0,0,0,0,0,0,0,0,0,0,0,0
  27,     10842, -8248,  7898,   412,     0,     0,     2,     3,     3, -6673,     0,     0,     2,0,0,0,0,0,0,0,0,0,0,0,0,0,0,0,0,0,1,0,0,0,0,0,0,0,0,0,0,0,0,0,0
  28,     11259, -8741,  7176,  1627,     0,     0,     3,     4,     5, -5822,     0,     0,     3,0,0,0,0,0,0,0,0,0,0,0,0,0,0,0,0,0,1,0,0,0,0,0,0,0,0,0,0,0,0,0,0
  29,     11676, -9081,  6327,  2811,     0,     0,     2,     3,     4, -4866,     0,     0,     2,0,0,0,0,0,0,0,0,0,0,0,0,0,0,0,0,0,1,0,0,0,0,0,0,0,0,0,0,0,0,0,0
  30,     12093, -9268,  5371,  3950,     1,     1,     4,     6,     0, -3840,     1,     1,     4,0,0,0,0,0,0,0,0,0,0,0,0,0,0,0,0,0,1,0,0,0,0,0,0,0,0,0,0,0,0,0,0
  31,     12510, -9300,  4320,  5019,     0,    -2,     3,     1,    -3, -2733,     0,    -2,     3,0,0,0,0,0,0,0,0,0,0,0,0,0,0,0,0,0,1,0,0,0,0,0,0,0,0,0,0,0,0,0,0
  32,     12927, -9166,  3199,  6008,     0,    -1,     2,     1,     0, -1545,     0,    -1,     2,0,0,0,0,0,0,0,0,0,0,0,0,0,0,0,0,0,1,0,0,0,0,0,0,0,0,0,0,0,0,0,0
  33,     13344, -8878,  2025,  6895,     0,     0,     2,     2,     0,  -349,     0,     0,     2,0,0,0,0,0,0,0,0,0,0,0,0,0,0,0,0,0,1,0,0,0,0,0,0,0,0,0,0,0,0,0,0
  34,     13761, -8436,   812,  7662,     0,    -3,     2,    -1,     0,   857,     0,    -3,     2,0,0,0,0,0,0,0,0,0,0,0,0,0,0,0,0,0,1,0,0,0,0,0,0,0,0,0,0,0,0,0,0
  35,     14178, -7852,  -412,  8300,     1,     0,     2,     3,     2,  2058,     1,     0,     2,0,0,0,0,0,0,0,0,0,0,0,0,0,0,0,0,0,1,0,0,0,0,0,0,0,0,0,0,0,0,0,0
  36,     14595, -7131, -1628,  8795,     1,     1,     2,     4,     2,  3221,     1,     1,     2,0,0,0,0,0,0,0,0,0,0,0,0,0,0,0,0,0,1,0,0,0,0,0,0,0,0,0,0,0,0,0,0
  37,     15012, -6290, -2818,  9138,     0,     0,     3,     2,     2,  4310,     0,     0,     3,0,0,0,0,0,0,0,0,0,0,0,0,0,0,0,0,0,1,0,0,0,0,0,0,0,0,0,0,0,0,0,0
  38,     15429, -5341, -3955,  9326,     0,    -1,     3,     2,     4,  5317,     0,    -1,     3,0,0,0,0,0,0,0,0,0,0,0,0,0,0,0,0,0,1,0,0,0,0,0,0,0,0,0,0,0,0,0,0
  39,     15846, -4301, -5029,  9354,     0,     0,     2,     2,     5,  6270,     0,     0,     2,0,0,0,0,0,0,0,0,0,0,0,0,0,0,0,0,0,1,0,0,0,0,0,0,0,0,0,0,0,0,0,0
  40,     16263, -3186, -6014,  9222,     0,    -1,     1,     0,     2,  7132,     0,    -1,     1,0,0,0,0,0,0,0,0,0,0,0,0,0,0,0,0,0,1,0,0,0,0,0,0,0,0,0,0,0,0,0,0
  41,     16680, -2016, -6898,  8934,     1,     0,     3,     5,     1,  7798,     1,     0,     3,0,0,0,0,0,0,0,0,0,0,0,0,0,0,0,0,0,1,0,0,0,0,0,0,0,0,0,0,0,0,0,0
  42,     17097,  -812, -7667,  8492,    -1,     0,     2,     1,    -1,  8319,    -1,     0,     2,0,0,0,0,0,0,0,0,0,0,0,0,0,0,0,0,0,1,0,0,0,0,0,0,0,0,0,0,0,0,0,0
  43,     17514,   409, -8301,  7903,     0,     0,     3,     3,    -5,  8740,     0,     0,     3,0,0,0,0,0,0,0,0,0,0,0,0,0,0,0,0,0,1,0,0,0,0,0,0,0,0,0,0,0,0,0,0
  44,     17931,  1616, -8795,  7180,     0,     0,     3,     3,   -16,  9032,     0,     0,     3,0,0,0,0,0,0,0,0,0,0,0,0,0,0,0,0,0,1,0,0,0,0,0,0,0,0,0,0,0,0,0,0
  45,     18348,  2793, -9137,  6333,     0,     0,     4,     4,   -24,  9175,     0,     0,     4,0,0,0,0,0,0,0,0,0,0,0,0,0,0,0,0,0,1,0,0,0,0,0,0,0,0,0,0,0,0,0,0
  46,     18765,  3923, -9325,  5375,     1,     0,     3,     4,   -19,  9154,     1,     0,     3,0,0,0,0,0,0,0,0,0,0,0,0,0,0,0,0,0,1,0,0,0,0,0,0,0,0,0,0,0,0,0,0
  47,     19182,  4986, -9353,  4327,     0,     0,     3,     2,    -5,  8999,     0,     0,     3,0,0,0,0,0,0,0,0,0,0,0,0,0,0,0,0,0,1,0,0,0,0,0,0,0,0,0,0,0,0,0,0
  48,     19599,  5966, -9222,  3206,     0,    -1,     3,     2,     6,  8679,     0,    -1,     3,0,0,0,0,0,0,0,0,0,0,0,0,0,0,0,0,0,1,0,0,0,0,0,0,0,0,0,0,0,0,0,0
  49,     20016,  6849, -8933,  2030,     0,     0,     3,     3,    11,  8148,     0,     0,     3,0,0,0,0,0,0,0,0,0,0,0,0,0,0,0,0,0,1,0,0,0,0,0,0,0,0,0,0,0,0,0,0
  50,     20433,  7613, -8488,   821,     0,     1,     4,     6,    12,  7454,     0,     1,     4,0,0,0,0,0,0,0,0,0,0,0,0,0,0,0,0,0,1,0,0,0,0,0,0,0,0,0,0,0,0,0,0
  51,     20850,  8241, -7899,  -405,     0,     0,     4,     4,    11,  6673,     0,     0,     4,0,0,0,0,0,0,0,0,0,0,0,0,0,0,0,0,0,1,0,0,0,0,0,0,0,0,0,0,0,0,0,0
  52,     21267,  8732, -7177, -1624,    -1,    -1,     3,     1,     4,  5820,    -1,    -1,     3,0,0,0,0,0,0,0,0,0,0,0,0,0,0,0,0,0,1,0,0,0,0,0,0,0,0,0,0,0,0,0,0
  53,     21684,  9072, -6329, -2810,     0,    -1,     2,     2,     0,  4871,     0,    -1,     2,0,0,0,0,0,0,0,0,0,0,0,0,0,0,0,0,0,1,0,0,0,0,0,0,0,0,0,0,0,0,0,0
  54,     22101,  9262, -5371, -3949,     1,     1,     3,     6,     5,  3843,     1,     1,     3,0,0,0,0,0,0,0,0,0,0,0,0,0,0,0,0,0,1,0,0,0,0,0,0,0,0,0,0,0,0,0,0
  55,     22518,  9288, -4326, -5023,    -1,    -1,     2,     1,     7,  2734,    -1,    -1,     2,0,0,0,0,0,0,0,0,0,0,0,0,0,0,0,0,0,1,0,0,0,0,0,0,0,0,0,0,0,0,0,0
  56,     22935,  9157, -3203, -6010,     0,    -1,     3,     2,     8,  1560,     0,    -1,     3,0,0,0,0,0,0,0,0,0,0,0,0,0,0,0,0,0,1,0,0,0,0,0,0,0,0,0,0,0,0,0,0
  57,     23352,  8870, -2027, -6895,     0,    -1,     3,     2,     9,   372,     0,    -1,     3,0,0,0,0,0,0,0,0,0,0,0,0,0,0,0,0,0,1,0,0,0,0,0,0,0,0,0,0,0,0,0,0
  58,     23769,  8430,  -812, -7660,     2,     0,     3,     5,    11,  -840,     2,     0,     3,0,0,0,0,0,0,0,0,0,0,0,0,0,0,0,0,0,1,0,0,0,0,0,0,0,0,0,0,0,0,0,0
  59,     24186,  7847,   413, -8299,     1,     0,     2,     3,    15, -2052,     1,     0,     2,0,0,0,0,0,0,0,0,0,0,0,0,0,0,0,0,0,1,0,0,0,0,0,0,0,0,0,0,0,0,0,0
  60,     24603,  7127,  1628, -8793,     0,     0,     3,     3,    16, -3219,     0,     0,     3,0,0,0,0,0,0,0,0,0,0,0,0,0,0,0,0,0,1,0,0,0,0,0,0,0,0,0,0,0,0,0,0
  61,     25020,  6287,  2815, -9141,     1,     1,     3,     5,    10, -4300,     1,     1,     3,0,0,0,0,0,0,0,0,0,0,0,0,0,0,0,0,0,1,0,0,0,0,0,0,0,0,0,0,0,0,0,0
  62,     25437,  5336,  3951, -9327,     1,     0,     2,     3,    -1, -5299,     1,     0,     2,0,0,0,0,0,0,0,0,0,0,0,0,0,0,0,0,0,1,0,0,0,0,0,0,0,0,0,0,0,0,0,0
  63,     25854,  4294,  5021, -9357,     0,    -1,     2,     1,    -9, -6262,     0,    -1,     2,0,0,0,0,0,0,0,0,0,0,0,0,0,0,0,0,0,1,0,0,0,0,0,0,0,0,0,0,0,0,0,0
  64,     26271,  3182,  6009, -9224,     0,     0,     3,     3,    -8, -7130,     0,     0,     3,0,0,0,0,0,0,0,0,0,0,0,0,0,0,0,0,0,1,0,0,0,0,0,0,0,0,0,0,0,0,0,0
  65,     26688,  2014,  6895, -8935,     0,     1,     2,     3,    -5, -7792,     0,     1,     2,0,0,0,0,0,0,0,0,0,0,0,0,0,0,0,0,0,1,0,0,0,0,0,0,0,0,0,0,0,0,0,0
  66,     27105,   810,  7663, -8492,    -1,     0,     2,     0,    -1, -8319,    -1,     0,     2,0,0,0,0,0,0,0,0,0,0,0,0,0,0,0,0,0,1,0,0,0,0,0,0,0,0,0,0,0,0,0,0
  67,     27522,  -407,  8299, -7903,     1,     0,     2,     3,     4, -8734,     1,     0,     2,0,0,0,0,0,0,0,0,0,0,0,0,0,0,0,0,0,1,0,0,0,0,0,0,0,0,0,0,0,0,0,0
  68,     27939, -1616,  8791, -7179,     1,     1,     2,     3,     9, -9029,     1,     1,     2,0,0,0,0,0,0,0,0,0,0,0,0,0,0,0,0,0,1,0,0,0,0,0,0,0,0,0,0,0,0,0,0
  69,     28356, -2795,  9138, -6329,     0,     2,     3,     6,    18, -9185,     0,     2,     3,0,0,0,0,0,0,0,0,0,0,0,0,0,0,0,0,0,1,0,0,0,0,0,0,0,0,0,0,0,0,0,0
  70,     28773, -3928,  9324, -5377,     1,     0,     3,     3,    17, -9156,     1,     0,     3,0,0,0,0,0,0,0,0,0,0,0,0,0,0,0,0,0,1,0,0,0,0,0,0,0,0,0,0,0,0,0,0
  71,     29190, -4992,  9355, -4326,     2,     0,     5,     7,    10, -8991,     2,     0,     5,0,0,0,0,0,0,0,0,0,0,0,0,0,0,0,0,0,1,0,0,0,0,0,0,0,0,0,0,0,0,0,0
  72,     29607, -5974,  9219, -3208,     0,    -1,     2,     1,     2, -8683,     0,    -1,     2,0,0,0,0,0,0,0,0,0,0,0,0,0,0,0,0,0,1,0,0,0,0,0,0,0,0,0,0,0,0,0,0
  73,     30024, -6852,  8930, -2028,     1,     0,     2,     3,     1, -8157,     1,     0,     2,0,0,0,0,0,0,0,0,0,0,0,0,0,0,0,0,0,1,0,0,0,0,0,0,0,0,0,0,0,0,0,0
  74,     30441, -7614,  8488,  -814,     0,     0,     3,     3,     1, -7462,     0,     0,     3,0,0,0,0,0,0,0,0,0,0,0,0,0,0,0,0,0,1,0,0,0,0,0,0,0,0,0,0,0,0,0,0
  75,     30858, -8247,  7899,   412,     0,    -1,     3,     2,     2, -6684,     0,    -1,     3,0,0,0,0,0,0,0,0,0,0,0,0,0,0,0,0,0,1,0,0,0,0,0,0,0,0,0,0,0,0,0,0
  76,     31275, -8740,  7175,  1627,     0,     0,     2,     2,     4, -5839,     0,     0,     2,0,0,0,0,0,0,0,0,0,0,0,0,0,0,0,0,0,1,0,0,0,0,0,0,0,0,0,0,0,0,0,0
  77,     31692, -9084,  6326,  2812,     0,    -1,     2,     1,     4, -4892,     0,    -1,     2,0,0,0,0,0,0,0,0,0,0,0,0,0,0,0,0,0,1,0,0,0,0,0,0,0,0,0,0,0,0,0,0
  78,     32109, -9268,  5371,  3951,     0,     1,     4,     5,     3, -3855,     0,     1,     4,0,0,0,0,0,0,0,0,0,0,0,0,0,0,0,0,0,1,0,0,0,0,0,0,0,0,0,0,0,0,0,0
  79,     32526, -9296,  4320,  5023,     0,     1,     2,     3,     0, -2749,     0,     1,     2,0,0,0,0,0,0,0,0,0,0,0,0,0,0,0,0,0,1,0,0,0,0,0,0,0,0,0,0,0,0,0,0
  80,     32943, -9164,  3201,  6012,     1,     1,     3,     6,     1, -1564,     1,     1,     3,0,0,0,0,0,0,0,0,0,0,0,0,0,0,0,0,0,1,0,0,0,0,0,0,0,0,0,0,0,0,0,0
  81,     33360, -8878,  2023,  6897,     0,     1,     3,     4,     0,  -372,     0,     1,     3,0,0,0,0,0,0,0,0,0,0,0,0,0,0,0,0,0,1,0,0,0,0,0,0,0,0,0,0,0,0,0,0
  82,     33777, -8439,   813,  7663,     0,     1,     3,     4,    -1,   832,     0,     1,     3,0,0,0,0,0,0,0,0,0,0,0,0,0,0,0,0,0,1,0,0,0,0,0,0,0,0,0,0,0,0,0,0
  83,     34194, -7850,  -411,  8300,     0,     0,     3,     3,    -1,  2037,     0,     0,     3,0,0,0,0,0,0,0,0,0,0,0,0,0,0,0,0,0,1,0,0,0,0,0,0,0,0,0,0,0,0,0,0
  84,     34611, -7129, -1627,  8797,     0,     0,     3,     4,     0,  3205,     0,     0,     3,0,0,0,0,0,0,0,0,0,0,0,0,0,0,0,0,0,1,0,0,0,0,0,0,0,0,0,0,0,0,0,0
  85,     35028, -6289, -2816,  9140,     0,     0,     5,     5,     0,  4286,     0,     0,     5,0,0,0,0,0,0,0,0,0,0,0,0,0,0,0,0,0,1,0,0,0,0,0,0,0,0,0,0,0,0,0,0
  86,     35445, -5341, -3957,  9323,    -1,    -1,     3,     1,     1,  5290,    -1,    -1,     3,0,0,0,0,0,0,0,0,0,0,0,0,0,0,0,0,0,1,0,0,0,0,0,0,0,0,0,0,0,0,0,0
  87,     35862, -4299, -5029,  9354,     0,     1,     3,     4,     2,  6254,     0,     1,     3,0,0,0,0,0,0,0,0,0,0,0,0,0,0,0,0,0,1,0,0,0,0,0,0,0,0,0,0,0,0,0,0
  88,     36279, -3186, -6018,  9220,    -1,    -1,     1,    -1,     1,  7119,    -1,    -1,     1,0,0,0,0,0,0,0,0,0,0,0,0,0,0,0,0,0,1,0,0,0,0,0,0,0,0,0,0,0,0,0,0
  89,     36696, -2016, -6899,  8932,    -1,     0,     4,     3,     1,  7790,    -1,     0,     4,0,0,0,0,0,0,0,0,0,0,0,0,0,0,0,0,0,1,0,0,0,0,0,0,0,0,0,0,0,0,0,0
  90,     37113,  -806, -7663,  8491,     2,     3,     4,     8,     1,  8306,     2,     3,     4,0,0,0,0,0,0,0,0,0,0,0,0,0,0,0,0,0,1,0,0,0,0,0,0,0,0,0,0,0,0,0,0
  91,     37530,   410, -8299,  7903,     0,     2,     4,     6,    -5,  8728,     0,     2,     4,0,0,0,0,0,0,0,0,0,0,0,0,0,0,0,0,0,1,0,0,0,0,0,0,0,0,0,0,0,0,0,0
  92,     37947,  1615, -8795,  7178,     0,     0,     3,     3,   -16,  9037,     0,     0,     3,0,0,0,0,0,0,0,0,0,0,0,0,0,0,0,0,0,1,0,0,0,0,0,0,0,0,0,0,0,0,0,0
  93,     38364,  2792, -9139,  6331,     0,     0,     3,     3,   -23,  9178,     0,     0,     3,0,0,0,0,0,0,0,0,0,0,0,0,0,0,0,0,0,1,0,0,0,0,0,0,0,0,0,0,0,0,0,0
  94,     38781,  3925, -9324,  5375,     1,     2,     4,     7,   -17,  9152,     1,     2,     4,0,0,0,0,0,0,0,0,0,0,0,0,0,0,0,0,0,1,0,0,0,0,0,0,0,0,0,0,0,0,0,0
  95,     39198,  4990, -9352,  4327,     1,     2,     4,     7,    -3,  9005,     1,     2,     4,0,0,0,0,0,0,0,0,0,0,0,0,0,0,0,0,0,1,0,0,0,0,0,0,0,0,0,0,0,0,0,0
  96,     39615,  5969, -9221,  3204,    -1,     0,     3,     2,     7,  8683,    -1,     0,     3,0,0,0,0,0,0,0,0,0,0,0,0,0,0,0,0,0,1,0,0,0,0,0,0,0,0,0,0,0,0,0,0
  97,     40032,  6849, -8932,  2028,    -1,    -1,     1,    -2,    10,  8148,    -1,    -1,     1,0,0,0,0,0,0,0,0,0,0,0,0,0,0,0,0,0,1,0,0,0,0,0,0,0,0,0,0,0,0,0,0
  98,     40449,  7614, -8489,   819,     1,     0,     3,     4,    12,  7464,     1,     0,     3,0,0,0,0,0,0,0,0,0,0,0,0,0,0,0,0,0,1,0,0,0,0,0,0,0,0,0,0,0,0,0,0
  99,     40866,  8244, -7900,  -406,     0,     0,     3,     3,    11,  6693,     0,     0,     3,0,0,0,0,0,0,0,0,0,0,0,0,0,0,0,0,0,1,0,0,0,0,0,0,0,0,0,0,0,0,0,0
 100,     41283,  8734, -7176, -1622,     2,     1,     3,     7,     5,  5839,     2,     1,     3,0,0,0,0,0,0,0,0,0,0,0,0,0,0,0,0,0,1,0,0,0,0,0,0,0,0,0,0,0,0,0,0
 101,     41700,  9077, -6327, -2809,     1,     1,     3,     6,     4,  4891,     1,     1,     3,0,0,0,0,0,0,0,0,0,0,0,0,0,0,0,0,0,1,0,0,0,0,0,0,0,0,0,0,0,0,0,0
 102,     42117,  9261, -5372, -3950,     2,     1,     2,     5,     5,  3867,     2,     1,     2,0,0,0,0,0,0,0,0,0,0,0,0,0,0,0,0,0,1,0,0,0,0,0,0,0,0,0,0,0,0,0,0
 103,     42534,  9288, -4325, -5022,     1,     2,     3,     6,     8,  2762,     1,     2,     3,0,0,0,0,0,0,0,0,0,0,0,0,0,0,0,0,0,1,0,0,0,0,0,0,0,0,0,0,0,0,0,0
 104,     42951,  9155, -3203, -6010,    -1,     1,     1,     1,     9,  1582,    -1,     1,     1,0,0,0,0,0,0,0,0,0,0,0,0,0,0,0,0,0,1,0,0,0,0,0,0,0,0,0,0,0,0,0,0
 105,     43368,  8869, -2028, -6897,    -1,    -1,     1,    -1,     8,   386,    -1,    -1,     1,0,0,0,0,0,0,0,0,0,0,0,0,0,0,0,0,0,1,0,0,0,0,0,0,0,0,0,0,0,0,0,0
 106,     43785,  8428,  -812, -7663,     0,     0,     2,     2,    11,  -824,     0,     0,     2,0,0,0,0,0,0,0,0,0,0,0,0,0,0,0,0,0,1,0,0,0,0,0,0,0,0,0,0,0,0,0,0
 107,     44202,  7847,   413, -8301,     0,     0,     2,     2,    15, -2028,     0,     0,     2,0,0,0,0,0,0,0,0,0,0,0,0,0,0,0,0,0,1,0,0,0,0,0,0,0,0,0,0,0,0,0,0
 108,     44619,  7129,  1629, -8795,     0,     0,     3,     3,    14, -3193,     0,     0,     3,0,0,0,0,0,0,0,0,0,0,0,0,0,0,0,0,0,1,0,0,0,0,0,0,0,0,0,0,0,0,0,0
 109,     45036,  6285,  2814, -9140,    -2,    -1,     2,    -1,     6, -4286,    -2,    -1,     2,0,0,0,0,0,0,0,0,0,0,0,0,0,0,0,0,0,1,0,0,0,0,0,0,0,0,0,0,0,0,0,0
 110,     45453,  5335,  3952, -9328,     1,     0,     2,     3,    -2, -5282,     1,     0,     2,0,0,0,0,0,0,0,0,0,0,0,0,0,0,0,0,0,1,0,0,0,0,0,0,0,0,0,0,0,0,0,0
 111,     45870,  4294,  5023, -9355,     1,     0,     3,     5,    -8, -6241,     1,     0,     3,0,0,0,0,0,0,0,0,0,0,0,0,0,0,0,0,0,1,0,0,0,0,0,0,0,0,0,0,0,0,0,0
