GI BAYAH, 0, 1999
48, 16A, 32D
1,VR PL RATU 1, , ,kV,0.010806857,0.000000000,0.000000000,-16384,16383,1500,1,P
2,VS PL RATU 1, , ,kV,0.010815488,0.000000000,0.000000000,-16384,16383,1500,1,P
3,VT PL RATU 1, , ,kV,0.010832751,0.000000000,0.000000000,-16384,16383,1500,1,P
4,V SPARE 1, , ,V,0.007213491,0.000000000,0.000000000,-16384,16383,1,1,P
5,IR PL RATU 1, , ,kA,0.003130708,0.000000000,0.000000000,-16384,16383,1600,1,P
6,IS PL RATU 1, , ,kA,0.003100497,0.000000000,0.000000000,-16384,16383,1600,1,P
7,IT PL RATU 1, , ,kA,0.003109992,0.000000000,0.000000000,-16384,16383,1600,1,P
8,IN PL RATU 1, , ,kA,0.003100497,0.000000000,0.000000000,-16384,16383,1600,1,P
9,VR PL RATU 2, , ,kV,0.010824120,0.000000000,0.000000000,-16384,16383,1500,1,P
10,VS  PL RATU 2, , ,kV,0.010815488,0.000000000,0.000000000,-16384,16383,1500,1,P
11,VT  PL RATU 2, , ,kV,0.010815488,0.000000000,0.000000000,-16384,16383,1500,1,P
12,V SPARE 2, , ,V,0.007218669,0.000000000,0.000000000,-16384,16383,1,1,P
13,IR  PL RATU 2, , ,kA,0.003109992,0.000000000,0.000000000,-16384,16383,1600,1,P
14,IS  PL RATU 2, , ,kA,0.003112582,0.000000000,0.000000000,-16384,16383,1600,1,P
15,IT  PL RATU 2, , ,kA,0.003137614,0.000000000,0.000000000,-16384,16383,1600,1,P
16,IN  PL RATU 2, , ,kA,0.003120350,0.000000000,0.000000000,-16384,16383,1600,1,P
1,DIST OPRT PRATU1,, ,0
2,OCR OPRT PLRATU1,, ,0
3,TRIP PH R PRATU1,, ,0
4,TRIP PH S PRATU1,, ,0
5,TRIP PH T PRATU1,, ,0
6,CB STATUS PH R-1,, ,0
7,CB STATUS PH S-1,, ,0
8,CB STATUS PH T-1,, ,0
9,A/R CLOSE PRATU1,, ,0
10,SF6 LOW PLRATU1,, ,0
11,CARR SEND PRATU1,, ,0
12,CARR RCV PLRATU1,, ,0
13,SPARE 13,, ,0
14,SPARE 14,, ,0
15,SPARE 15,, ,0
16,SPARE 16,, ,0
17,DIST OPRT PRATU2,, ,0
18,OCR OPRT PLRATU2,, ,0
19,TRIP PH R PRATU2,, ,0
20,TRIP PH S PRATU2,, ,0
21,TRIP PH T PRATU2,, ,0
22,CB STATUS PH R-2,, ,0
23,CB STATUS PH S-2,, ,0
24,CB STATUS PH T-2,, ,0
25,A/R CLOSE PRATU2,, ,0
26,SF6 LOW PLRATU2,, ,0
27,CARR SEND PRATU2,, ,0
28,CARR RCV PRATU2,, ,0
29,SPARE 29,, ,0
30,SPARE 30,, ,0
31,SPARE 31,, ,0
32,SPARE 32,, ,0
50
1
6400, 4284
30/04/2023,20:14:12.128346
30/04/2023,20:14:12.228971
ASCII
1
     1,0000000000,    -11478,    5391,    6007,    -6,     49,    -29,    -32,    -2,    -11478,    5393,    6020,    -2,     48,    -16,    -23,     2,     0,     0,     0,     0,     0,     0,     0,     0,     0,     0,     0,     0,     0,     0,     0,     0,     0,     0,     0,     0,     0,     0,     0,     0,     0,     0,     0,     0,     0,     0,     0,     0
     2,0000000156,    -11445,    4918,    6446,    -3,     48,    -28,    -38,     5,    -11448,    4917,    6458,    -6,     44,    -22,    -19,    -2,     0,     0,     0,     0,     0,     0,     0,     0,     0,     0,     0,     0,     0,     0,     0,     0,     0,     0,     0,     0,     0,     0,     0,     0,     0,     0,     0,     0,     0,     0,     0,     0
     3,0000000312,    -11384,    4428,    6892,    -7,     58,    -31,    -28,     4,    -11387,    4429,    6900,    -1,     40,    -17,    -23,    -4,     0,     0,     0,     0,     0,     0,     0,     0,     0,     0,     0,     0,     0,     0,     0,     0,     0,     0,     0,     0,     0,     0,     0,     0,     0,     0,     0,     0,     0,     0,     0,     0
     4,0000000468,    -11284,    3927,    7305,    -1,     56,    -23,    -33,    -3,    -11282,    3909,    7321,    -2,     41,    -7,    -33,     5,     0,     0,     0,     0,     0,     0,     0,     0,     0,     0,     0,     0,     0,     0,     0,     0,     0,     0,     0,     0,     0,     0,     0,     0,     0,     0,     0,     0,     0,     0,     0,     0
     5,0000000625,    -11142,    3402,    7705,    -1,     53,    -21,    -48,     2,    -11150,    3392,    7720,    -3,     41,    -14,    -27,    -1,     0,     0,     0,     0,     0,     0,     0,     0,     0,     0,     0,     0,     0,     0,     0,     0,     0,     0,     0,     0,     0,     0,     0,     0,     0,     0,     0,     0,     0,     0,     0,     0
     6,0000000781,    -10982,    2892,    8069,    -1,     57,    -26,    -40,     2,    -10994,    2880,    8091,    -1,     48,    -11,    -29,    -5,     0,     0,     0,     0,     0,     0,     0,     0,     0,     0,     0,     0,     0,     0,     0,     0,     0,     0,     0,     0,     0,     0,     0,     0,     0,     0,     0,     0,     0,     0,     0,     0
     7,0000000937,    -10785,    2365,    8404,    -4,     45,    -20,    -43,     0,    -10791,    2342,    8431,    -9,     46,    -7,    -31,    -4,     0,     0,     0,     0,     0,     0,     0,     0,     0,     0,     0,     0,     0,     0,     0,     0,     0,     0,     0,     0,     0,     0,     0,     0,     0,     0,     0,     0,     0,     0,     0,     0
     8,0000001093,    -10559,    1794,    8753,     2,     51,    -16,    -41,     0,    -10563,    1779,    8778,    -4,     41,    -10,    -31,    -1,     0,     0,     0,     0,     0,     0,     0,     0,     0,     0,     0,     0,     0,     0,     0,     0,     0,     0,     0,     0,     0,     0,     0,     0,     0,     0,     0,     0,     0,     0,     0,     0
     9,0000001250,    -10311,    1214,    9098,    -9,     51,    -16,    -43,    -2,    -10322,    1210,    9121,    -6,     42,     0,    -38,     4,     0,     0,     0,     0,     0,     0,     0,     0,     0,     0,     0,     0,     0,     0,     0,     0,     0,     0,     0,     0,     0,     0,     0,     0,     0,     0,     0,     0,     0,     0,     0,     0
    10,0000001406,    -10047,     641,    9409,    -6,     55,    -19,    -45,    -6,    -10049,     634,    9432,    -1,     38,     0,    -41,     4,     0,     0,     0,     0,     0,     0,     0,     0,     0,     0,     0,     0,     0,     0,     0,     0,     0,     0,     0,     0,     0,     0,     0,     0,     0,     0,     0,     0,     0,     0,     0,     0
    11,0000001562,    -9736,     58,    9701,    -3,     52,    -10,    -54,     7,    -9758,     64,    9716,     0,     39,    -6,    -29,    -6,     0,     0,     0,     0,     0,     0,     0,     0,     0,     0,     0,     0,     0,     0,     0,     0,     0,     0,     0,     0,     0,     0,     0,     0,     0,     0,     0,     0,     0,     0,     0,     0
    12,0000001718,    -9445,    -493,    9959,    -6,     48,    -9,    -48,    -1,    -9458,    -487,    9976,    -5,     34,    -1,    -39,    -4,     0,     0,     0,     0,     0,     0,     0,     0,     0,     0,     0,     0,     0,     0,     0,     0,     0,     0,     0,     0,     0,     0,     0,     0,     0,     0,     0,     0,     0,     0,     0,     0
    13,0000001874,    -9128,    -1028,   10176,    -3,     44,    -1,    -53,     0,    -9127,    -1032,   10204,    -5,     39,     7,    -40,    -1,     0,     0,     0,     0,     0,     0,     0,     0,     0,     0,     0,     0,     0,     0,     0,     0,     0,     0,     0,     0,     0,     0,     0,     0,     0,     0,     0,     0,     0,     0,     0,     0
    14,0000002031,    -8764,    -1612,   10406,    -4,     48,     1,    -52,     3,    -8774,    -1610,   10427,    -5,     34,     5,    -39,    -8,     0,     0,     0,     0,     0,     0,     0,     0,     0,     0,     0,     0,     0,     0,     0,     0,     0,     0,     0,     0,     0,     0,     0,     0,     0,     0,     0,     0,     0,     0,     0,     0
    15,0000002187,    -8397,    -2197,   10643,    -9,     41,    -1,    -48,    -3,    -8407,    -2207,   10659,    -1,     33,     5,    -38,     1,     0,     0,     0,     0,     0,     0,     0,     0,     0,     0,     0,     0,     0,     0,     0,     0,     0,     0,     0,     0,     0,     0,     0,     0,     0,     0,     0,     0,     0,     0,     0,     0
    16,0000002343,    -8021,    -2759,   10835,    -4,     42,     6,    -50,    -1,    -8032,    -2762,   10859,    -3,     30,     13,    -47,     0,     0,     0,     0,     0,     0,     0,     0,     0,     0,     0,     0,     0,     0,     0,     0,     0,     0,     0,     0,     0,     0,     0,     0,     0,     0,     0,     0,     0,     0,     0,     0,     0
    17,0000002500,    -7627,    -3311,   11000,    -5,     39,     8,    -59,     5,    -7644,    -3308,   11019,    -6,     27,     12,    -38,     1,     0,     0,     0,     0,     0,     0,     0,     0,     0,     0,     0,     0,     0,     0,     0,     0,     0,     0,     0,     0,     0,     0,     0,     0,     0,     0,     0,     0,     0,     0,     0,     0
    18,0000002656,    -7220,    -3827,   11123,    -1,     37,     11,    -55,     2,    -7232,    -3830,   11141,     0,     30,     13,    -42,    -5,     0,     0,     0,     0,     0,     0,     0,     0,     0,     0,     0,     0,     0,     0,     0,     0,     0,     0,     0,     0,     0,     0,     0,     0,     0,     0,     0,     0,     0,     0,     0,     0
    19,0000002812,    -6804,    -4343,   11223,    -2,     34,     10,    -53,    -2,    -6816,    -4348,   11243,     0,     26,     16,    -41,    -3,     0,     0,     0,     0,     0,     0,     0,     0,     0,     0,     0,     0,     0,     0,     0,     0,     0,     0,     0,     0,     0,     0,     0,     0,     0,     0,     0,     0,     0,     0,     0,     0
    20,0000002968,    -6352,    -4876,   11312,    -4,     32,     17,    -50,     0,    -6369,    -4883,   11335,    -4,     24,     17,    -46,     2,     0,     0,     0,     0,     0,     0,     0,     0,     0,     0,     0,     0,     0,     0,     0,     0,     0,     0,     0,     0,     0,     0,     0,     0,     0,     0,     0,     0,     0,     0,     0,     0
    21,0000003125,    -5903,    -5397,   11394,    -1,     25,     16,    -55,     0,    -5922,    -5407,   11410,    -3,     23,     16,    -37,     0,     0,     0,     0,     0,     0,     0,     0,     0,     0,     0,     0,     0,     0,     0,     0,     0,     0,     0,     0,     0,     0,     0,     0,     0,     0,     0,     0,     0,     0,     0,     0,     0
    22,0000003281,    -5453,    -5869,   11426,     1,     30,     22,    -61,     0,    -5472,    -5876,   11445,    -6,     22,     19,    -38,     0,     0,     0,     0,     0,     0,     0,     0,     0,     0,     0,     0,     0,     0,     0,     0,     0,     0,     0,     0,     0,     0,     0,     0,     0,     0,     0,     0,     0,     0,     0,     0,     0
    23,0000003437,    -4984,    -6319,   11406,    -9,     30,     24,    -65,     2,    -5008,    -6331,   11424,    -5,     21,     23,    -42,     0,     0,     0,     0,     0,     0,     0,     0,     0,     0,     0,     0,     0,     0,     0,     0,     0,     0,     0,     0,     0,     0,     0,     0,     0,     0,     0,     0,     0,     0,     0,     0,     0
    24,0000003593,    -4493,    -6765,   11351,    -5,     26,     25,    -57,     2,    -4513,    -6778,   11374,     0,     8,     27,    -45,     4,     0,     0,     0,     0,     0,     0,     0,     0,     0,     0,     0,     0,     0,     0,     0,     0,     0,     0,     0,     0,     0,     0,     0,     0,     0,     0,     0,     0,     0,     0,     0,     0
    25,0000003749,    -3977,    -7200,   11263,    -4,     21,     27,    -60,     6,    -4009,    -7208,   11284,    -5,     15,     18,    -40,    -1,     0,     0,     0,     0,     0,     0,     0,     0,     0,     0,     0,     0,     0,     0,     0,     0,     0,     0,     0,     0,     0,     0,     0,     0,     0,     0,     0,     0,     0,     0,     0,     0
    26,0000003906,    -3455,    -7607,   11137,    -4,     23,     30,    -60,     2,    -3470,    -7616,   11151,    -1,     9,     31,    -43,     4,     0,     0,     0,     0,     0,     0,     0,     0,     0,     0,     0,     0,     0,     0,     0,     0,     0,     0,     0,     0,     0,     0,     0,     0,     0,     0,     0,     0,     0,     0,     0,     0
    27,0000004062,    -2928,    -7998,   10981,     3,     13,     29,    -58,     1,    -2952,    -8001,   11012,    -3,     15,     32,    -43,    -1,     0,     0,     0,     0,     0,     0,     0,     0,     0,     0,     0,     0,     0,     0,     0,     0,     0,     0,     0,     0,     0,     0,     0,     0,     0,     0,     0,     0,     0,     0,     0,     0
    28,0000004218,    -2406,    -8339,   10802,    -6,     17,     30,    -50,    -3,    -2434,    -8340,   10816,     2,     2,     33,    -37,     1,     0,     0,     0,     0,     0,     0,     0,     0,     0,     0,     0,     0,     0,     0,     0,     0,     0,     0,     0,     0,     0,     0,     0,     0,     0,     0,     0,     0,     0,     0,     0,     0
    29,0000004375,    -1863,    -8685,   10575,     0,     14,     35,    -50,    -1,    -1890,    -8687,   10596,    -6,     15,     32,    -45,     0,     0,     0,     0,     0,     0,     0,     0,     0,     0,     0,     0,     0,     0,     0,     0,     0,     0,     0,     0,     0,     0,     0,     0,     0,     0,     0,     0,     0,     0,     0,     0,     0
    30,0000004531,    -1277,    -9038,   10343,    -2,     10,     40,    -54,     2,    -1310,    -9039,   10364,     0,     6,     35,    -43,    -1,     0,     0,     0,     0,     0,     0,     0,     0,     0,     0,     0,     0,     0,     0,     0,     0,     0,     0,     0,     0,     0,     0,     0,     0,     0,     0,     0,     0,     0,     0,     0,     0
    31,0000004687,    -713,    -9350,    10078,    -5,     0,     38,    -59,     0,    -741,    -9347,    10100,    -6,     8,     28,    -42,    -6,     0,     0,     0,     0,     0,     0,     0,     0,     0,     0,     0,     0,     0,     0,     0,     0,     0,     0,     0,     0,     0,     0,     0,     0,     0,     0,     0,     0,     0,     0,     0,     0
    32,0000004843,    -131,    -9656,    9802,    -9,     3,     42,    -59,     7,    -169,    -9639,    9802,    -3,     9,     28,    -37,    -3,     0,     0,     0,     0,     0,     0,     0,     0,     0,     0,     0,     0,     0,     0,     0,     0,     0,     0,     0,     0,     0,     0,     0,     0,     0,     0,     0,     0,     0,     0,     0,     0
    33,0000005000,     411,    -9913,    9503,    -1,     1,     37,    -48,    -2,     381,    -9910,    9516,     0,    -2,     33,    -36,    -4,     0,     0,     0,     0,     0,     0,     0,     0,     0,     0,     0,     0,     0,     0,     0,     0,     0,     0,     0,     0,     0,     0,     0,     0,     0,     0,     0,     0,     0,     0,     0,     0
    34,0000005156,     964,    -10155,    9199,    -1,    -4,     42,    -55,     1,     928,    -10151,    9206,    -5,    -3,     32,    -31,    -4,     0,     0,     0,     0,     0,     0,     0,     0,     0,     0,     0,     0,     0,     0,     0,     0,     0,     0,     0,     0,     0,     0,     0,     0,     0,     0,     0,     0,     0,     0,     0,     0
    35,0000005312,    1529,    -10364,    8845,    -6,     4,     42,    -49,    -1,    1496,    -10366,    8845,    -5,    -1,     34,    -33,    -3,     0,     0,     0,     0,     0,     0,     0,     0,     0,     0,     0,     0,     0,     0,     0,     0,     0,     0,     0,     0,     0,     0,     0,     0,     0,     0,     0,     0,     0,     0,     0,     0
    36,0000005468,    2120,    -10615,    8484,    -6,    -6,     46,    -48,     5,    2079,    -10613,    8488,    -2,    -4,     33,    -26,    -3,     0,     0,     0,     0,     0,     0,     0,     0,     0,     0,     0,     0,     0,     0,     0,     0,     0,     0,     0,     0,     0,     0,     0,     0,     0,     0,     0,     0,     0,     0,     0,     0
    37,0000005624,    2670,    -10810,    8126,    -1,    -9,     38,    -41,    -2,    2646,    -10823,    8131,    -3,    -10,     35,    -38,    -1,     0,     0,     0,     0,     0,     0,     0,     0,     0,     0,     0,     0,     0,     0,     0,     0,     0,     0,     0,     0,     0,     0,     0,     0,     0,     0,     0,     0,     0,     0,     0,     0
    38,0000005781,    3216,    -10982,    7755,    -5,    -8,     44,    -43,     3,    3186,    -11000,    7756,    -6,    -9,     40,    -31,     0,     0,     0,     0,     0,     0,     0,     0,     0,     0,     0,     0,     0,     0,     0,     0,     0,     0,     0,     0,     0,     0,     0,     0,     0,     0,     0,     0,     0,     0,     0,     0,     0
    39,0000005937,    3736,    -11126,    7360,    -5,    -20,     43,    -47,     4,    3716,    -11147,    7371,     0,    -16,     28,    -29,    -1,     0,     0,     0,     0,     0,     0,     0,     0,     0,     0,     0,     0,     0,     0,     0,     0,     0,     0,     0,     0,     0,     0,     0,     0,     0,     0,     0,     0,     0,     0,     0,     0
    40,0000006093,    4252,    -11238,    6956,     0,    -17,     41,    -37,    -3,    4222,    -11260,    6960,    -9,    -11,     31,    -22,    -7,     0,     0,     0,     0,     0,     0,     0,     0,     0,     0,     0,     0,     0,     0,     0,     0,     0,     0,     0,     0,     0,     0,     0,     0,     0,     0,     0,     0,     0,     0,     0,     0
    41,0000006250,    4778,    -11330,    6515,    -10,    -18,     42,    -36,    -3,    4749,    -11354,    6524,    -3,    -14,     36,    -29,    -2,     0,     0,     0,     0,     0,     0,     0,     0,     0,     0,     0,     0,     0,     0,     0,     0,     0,     0,     0,     0,     0,     0,     0,     0,     0,     0,     0,     0,     0,     0,     0,     0
    42,0000006406,    5311,    -11424,    6072,     2,    -28,     47,    -33,     3,    5282,    -11446,    6084,    -1,    -22,     39,    -24,    -3,     0,     0,     0,     0,     0,     0,     0,     0,     0,     0,     0,     0,     0,     0,     0,     0,     0,     0,     0,     0,     0,     0,     0,     0,     0,     0,     0,     0,     0,     0,     0,     0
    43,0000006562,    5786,    -11474,    5647,    -4,    -29,     49,    -31,    -3,    5765,    -11498,    5660,    -9,    -23,     35,    -16,     0,     0,     0,     0,     0,     0,     0,     0,     0,     0,     0,     0,     0,     0,     0,     0,     0,     0,     0,     0,     0,     0,     0,     0,     0,     0,     0,     0,     0,     0,     0,     0,     0
    44,0000006718,    6242,    -11475,    5203,    -6,    -21,     49,    -34,     3,    6209,    -11483,    5207,    -3,    -20,     33,    -20,    -3,     0,     0,     0,     0,     0,     0,     0,     0,     0,     0,     0,     0,     0,     0,     0,     0,     0,     0,     0,     0,     0,     0,     0,     0,     0,     0,     0,     0,     0,     0,     0,     0
    45,0000006875,    6678,    -11435,    4722,    -7,    -28,     40,    -23,    -5,    6657,    -11453,    4728,     0,    -24,     38,    -19,    -2,     0,     0,     0,     0,     0,     0,     0,     0,     0,     0,     0,     0,     0,     0,     0,     0,     0,     0,     0,     0,     0,     0,     0,     0,     0,     0,     0,     0,     0,     0,     0,     0
    46,0000007031,    7117,    -11366,    4213,    -5,    -37,     48,    -25,    -2,    7088,    -11366,    4218,    -1,    -23,     37,    -16,     0,     0,     0,     0,     0,     0,     0,     0,     0,     0,     0,     0,     0,     0,     0,     0,     0,     0,     0,     0,     0,     0,     0,     0,     0,     0,     0,     0,     0,     0,     0,     0,     0
    47,0000007187,    7517,    -11245,    3688,    -4,    -39,     45,    -26,     0,    7501,    -11245,    3698,     4,    -26,     30,    -12,    -3,     0,     0,     0,     0,     0,     0,     0,     0,     0,     0,     0,     0,     0,     0,     0,     0,     0,     0,     0,     0,     0,     0,     0,     0,     0,     0,     0,     0,     0,     0,     0,     0
