GITET TASIK, 0
48, 16A, 32D
1,VR DEPOK 1, , ,kV,0.036,0.000,0.000,0.000000,16384.000000
2,VS DEPOK 1, , ,kV,0.036,0.000,0.000,0.000000,16384.000000
3,VT DEPOK 1, , ,kV,0.036,0.000,0.000,0.000000,16384.000000
4,VN DEPOK1 1, , ,V,0.007,0.000,0.000,0.000000,16384.000000
5,IR DEPOK 1, , ,kA,0.004,0.000,0.000,0.000000,16384.000000
6,IS DEPOK 1, , ,kA,0.004,0.000,0.000,0.000000,16384.000000
7,IT DEPOK 1, , ,kA,0.004,0.000,0.000,0.000000,16384.000000
8,IN DEPOK 1, , ,kA,0.004,0.000,0.000,0.000000,16384.000000
9,VR DEPOK 2, , ,kV,0.036,0.000,0.000,0.000000,16384.000000
10,VS DEPOK 2, , ,kV,0.036,0.000,0.000,0.000000,16384.000000
11,VT DEPOK 2, , ,kV,0.036,0.000,0.000,0.000000,16384.000000
12,VN DEPOK 2, , ,V,0.007,0.000,0.000,0.000000,16384.000000
13,IR DEPOK 2, , ,kA,0.004,0.000,0.000,0.000000,16384.000000
14,IS DEPOK 2, , ,kA,0.004,0.000,0.000,0.000000,16384.000000
15,IT DEPOK 2, , ,kA,0.004,0.000,0.000,0.000000,16384.000000
16,IN DEPOK 2, , ,kA,0.004,0.000,0.000,0.000000,16384.000000
1,F21-1 DPK1 OPRT,0
2,F21-2 DPK1 OPRT,0
3,F21-12 DPK1 OPRT,0
4,AR 3PH DPK1 OPRT,0
5,TRP RLY1 DPK1,0
6,TRP RLY2 DPK1,0
7,CCP1 A/B OPRT,0
8,CCP2 A/B OPRT,0
9,CBF A DPK1 OPR,0
10,SPARE 10,0
11,CB A OPEN DPK1,0
12,67 PROT OPR DPK1,0
13,LOR A OPR DPK1,0
14,LOR B OPR DPK1,0
15,CBF B OPR DPK1,0
16,CB B OPEN DPK1,0
17,F21-1 DPK2 OPRT,0
18,F21-2 DPK2 OPRT,0
19,F21-12 DPK2 REC,0
20,AR 3PH DPK2 TRF,0
21,TRP RLY1 DPK2,0
22,TRP RLY2 DPK2,0
23,CCP1 A/B OP DPK2,0
24,CCP2 A/B OP DPK2,0
25,CBF DPK2 OPRT,0
26,1 Event 26,0
27,CB A OPEN DPK2,0
28,67 PROT OPR DPK2,0
29,LOR A OPR DPK2,0
30,LOR B OPR DPK2,0
31,CBF B OPR DPK2,0
32,CB B OPEN DPK2,0
50
1
6400, 8908
04/02/20,18:34:51.848347
04/02/20,18:34:51.948972
ASCII
1, 0, 011583, -02475, -08387, 000286, -00155, -00018, 000170, -00003, 011780, -02309, -08168, 000467, -00159, -00016, 000167, -00007,      0,      0,      0,      0,      0,      0,      0,      0,      0,      0,      0,      0,      0,      0,      0,      0,      0,      0,      0,      0,      0,      0,      0,      0,      0,      0,      0,      0,      0,      0,      0,      0
2, 156, 011392, -01971, -08730, 000275, -00145, -00025, 000164, 000002, 011593, -01804, -08513, 000473, -00151, -00025, 000171, -00007,      0,      0,      0,      0,      0,      0,      0,      0,      0,      0,      0,      0,      0,      0,      0,      0,      0,      0,      0,      0,      0,      0,      0,      0,      0,      0,      0,      0,      0,      0,      0,      0
3, 312, 011174, -01481, -09057, 000264, -00139, -00033, 000171, 000008, 011374, -01302, -08824, 000462, -00139, -00035, 000173, 000004,      0,      0,      0,      0,      0,      0,      0,      0,      0,      0,      0,      0,      0,      0,      0,      0,      0,      0,      0,      0,      0,      0,      0,      0,      0,      0,      0,      0,      0,      0,      0,      0
4, 468, 010912, -00987, -09365, 000237, -00134, -00041, 000177, 000001, 011119, -00807, -09131, 000449, -00136, -00046, 000179, -00006,      0,      0,      0,      0,      0,      0,      0,      0,      0,      0,      0,      0,      0,      0,      0,      0,      0,      0,      0,      0,      0,      0,      0,      0,      0,      0,      0,      0,      0,      0,      0,      0
5, 625, 010627, -00491, -09666, 000215, -00121, -00056, 000180, 000002, 010838, -00307, -09432, 000421, -00132, -00054, 000186, -00005,      0,      0,      0,      0,      0,      0,      0,      0,      0,      0,      0,      0,      0,      0,      0,      0,      0,      0,      0,      0,      0,      0,      0,      0,      0,      0,      0,      0,      0,      0,      0,      0
6, 781, 010316, 000006, -09962, 000182, -00114, -00067, 000181, 000001, 010524, 000188, -09727, 000384, -00119, -00066, 000182, 000000,      0,      0,      0,      0,      0,      0,      0,      0,      0,      0,      0,      0,      0,      0,      0,      0,      0,      0,      0,      0,      0,      0,      0,      0,      0,      0,      0,      0,      0,      0,      0,      0
7, 937, 009968, 000506, -10246, 000139, -00107, -00074, 000185, 000003, 010173, 000697, -10010, 000342, -00111, -00078, 000183, -00006,      0,      0,      0,      0,      0,      0,      0,      0,      0,      0,      0,      0,      0,      0,      0,      0,      0,      0,      0,      0,      0,      0,      0,      0,      0,      0,      0,      0,      0,      0,      0,      0
8, 1093, 009594, 001020, -10524, 000094, -00102, -00084, 000190, -00006, 009800, 001206, -10288, 000290, -00102, -00085, 000188, -00003,      0,      0,      0,      0,      0,      0,      0,      0,      0,      0,      0,      0,      0,      0,      0,      0,      0,      0,      0,      0,      0,      0,      0,      0,      0,      0,      0,      0,      0,      0,      0,      0
9, 1250, 009187, 001539, -10789, 000043, -00089, -00093, 000187, 000004, 009396, 001727, -10554, 000236, -00091, -00098, 000187, -00002,      0,      0,      0,      0,      0,      0,      0,      0,      0,      0,      0,      0,      0,      0,      0,      0,      0,      0,      0,      0,      0,      0,      0,      0,      0,      0,      0,      0,      0,      0,      0,      0
10, 1406, 008748, 002075, -11039, -00002, -00084, -00106, 000189, 000003, 008951, 002268, -10807, 000182, -00093, -00104, 000187, -00004,      0,      0,      0,      0,      0,      0,      0,      0,      0,      0,      0,      0,      0,      0,      0,      0,      0,      0,      0,      0,      0,      0,      0,      0,      0,      0,      0,      0,      0,      0,      0,      0
11, 1562, 008288, 002641, -11271, -00055, -00076, -00115, 000197, 000004, 008478, 002829, -11044, 000134, -00077, -00111, 000192, -00007,      0,      0,      0,      0,      0,      0,      0,      0,      0,      0,      0,      0,      0,      0,      0,      0,      0,      0,      0,      0,      0,      0,      0,      0,      0,      0,      0,      0,      0,      0,      0,      0
12, 1718, 007812, 003235, -11485, -00085, -00073, -00120, 000195, -00002, 007991, 003403, -11283, 000078, -00072, -00130, 000191, -00007,      0,      0,      0,      0,      0,      0,      0,      0,      0,      0,      0,      0,      0,      0,      0,      0,      0,      0,      0,      0,      0,      0,      0,      0,      0,      0,      0,      0,      0,      0,      0,      0
13, 1874, 007339, 003832, -11683, -00113, -00065, -00121, 000190, 000002, 007485, 003981, -11496, 000028, -00067, -00129, 000187, -00007,      0,      0,      0,      0,      0,      0,      0,      0,      0,      0,      0,      0,      0,      0,      0,      0,      0,      0,      0,      0,      0,      0,      0,      0,      0,      0,      0,      0,      0,      0,      0,      0
14, 2031, 006827, 004423, -11854, -00144, -00055, -00134, 000191, -00001, 006968, 004564, -11681, -00013, -00062, -00128, 000191, -00005,      0,      0,      0,      0,      0,      0,      0,      0,      0,      0,      0,      0,      0,      0,      0,      0,      0,      0,      0,      0,      0,      0,      0,      0,      0,      0,      0,      0,      0,      0,      0,      0
15, 2187, 006297, 005003, -12024, -00185, -00053, -00143, 000189, 000000, 006441, 005161, -11834, -00042, -00053, -00139, 000190, -00004,      0,      0,      0,      0,      0,      0,      0,      0,      0,      0,      0,      0,      0,      0,      0,      0,      0,      0,      0,      0,      0,      0,      0,      0,      0,      0,      0,      0,      0,      0,      0,      0
16, 2343, 005742, 005563, -12156, -00223, -00043, -00148, 000193, 000006, 005905, 005740, -11954, -00062, -00045, -00141, 000186, -00004,      0,      0,      0,      0,      0,      0,      0,      0,      0,      0,      0,      0,      0,      0,      0,      0,      0,      0,      0,      0,      0,      0,      0,      0,      0,      0,      0,      0,      0,      0,      0,      0
17, 2500, 005178, 006105, -12254, -00271, -00029, -00150, 000193, 000006, 005368, 006311, -12035, -00088, -00037, -00151, 000186, -00006,      0,      0,      0,      0,      0,      0,      0,      0,      0,      0,      0,      0,      0,      0,      0,      0,      0,      0,      0,      0,      0,      0,      0,      0,      0,      0,      0,      0,      0,      0,      0,      0
18, 2656, 004625, 006619, -12315, -00302, -00025, -00153, 000182, 000004, 004836, 006847, -12070, -00096, -00028, -00155, 000183, -00006,      0,      0,      0,      0,      0,      0,      0,      0,      0,      0,      0,      0,      0,      0,      0,      0,      0,      0,      0,      0,      0,      0,      0,      0,      0,      0,      0,      0,      0,      0,      0,      0
19, 2812, 004079, 007104, -12321, -00314, -00014, -00163, 000182, 000005, 004311, 007345, -12061, -00101, -00021, -00158, 000173, -00004,      0,      0,      0,      0,      0,      0,      0,      0,      0,      0,      0,      0,      0,      0,      0,      0,      0,      0,      0,      0,      0,      0,      0,      0,      0,      0,      0,      0,      0,      0,      0,      0
20, 2968, 003545, 007548, -12268, -00332, -00009, -00167, 000175, 000003, 003782, 007803, -12005, -00109, -00007, -00162, 000171, -00014,      0,      0,      0,      0,      0,      0,      0,      0,      0,      0,      0,      0,      0,      0,      0,      0,      0,      0,      0,      0,      0,      0,      0,      0,      0,      0,      0,      0,      0,      0,      0,      0
21, 3125, 003017, 007968, -12178, -00330, 000005, -00173, 000170, -00001, 003255, 008234, -11914, -00102, 000001, -00168, 000164, -00006,      0,      0,      0,      0,      0,      0,      0,      0,      0,      0,      0,      0,      0,      0,      0,      0,      0,      0,      0,      0,      0,      0,      0,      0,      0,      0,      0,      0,      0,      0,      0,      0
22, 3281, 002499, 008343, -12035, -00315, 000015, -00183, 000164, 000004, 002734, 008613, -11774, -00095, 000014, -00174, 000162, -00006,      0,      0,      0,      0,      0,      0,      0,      0,      0,      0,      0,      0,      0,      0,      0,      0,      0,      0,      0,      0,      0,      0,      0,      0,      0,      0,      0,      0,      0,      0,      0,      0
23, 3437, 002002, 008717, -11850, -00299, 000025, -00181, 000159, -00001, 002223, 008973, -11596, -00083, 000023, -00180, 000157, -00007,      0,      0,      0,      0,      0,      0,      0,      0,      0,      0,      0,      0,      0,      0,      0,      0,      0,      0,      0,      0,      0,      0,      0,      0,      0,      0,      0,      0,      0,      0,      0,      0
24, 3593, 001509, 009044, -11616, -00269, 000038, -00187, 000146, 000001, 001728, 009292, -11379, -00064, 000033, -00187, 000152, 000000,      0,      0,      0,      0,      0,      0,      0,      0,      0,      0,      0,      0,      0,      0,      0,      0,      0,      0,      0,      0,      0,      0,      0,      0,      0,      0,      0,      0,      0,      0,      0,      0
25, 3749, 001018, 009362, -11347, -00230, 000046, -00191, 000147, 000002, 001229, 009592, -11122, -00040, 000039, -00183, 000142, -00002,      0,      0,      0,      0,      0,      0,      0,      0,      0,      0,      0,      0,      0,      0,      0,      0,      0,      0,      0,      0,      0,      0,      0,      0,      0,      0,      0,      0,      0,      0,      0,      0
26, 3906, 000533, 009645, -11042, -00199, 000054, -00194, 000139, 000002, 000726, 009879, -10826, -00015, 000053, -00188, 000134, -00004,      0,      0,      0,      0,      0,      0,      0,      0,      0,      0,      0,      0,      0,      0,      0,      0,      0,      0,      0,      0,      0,      0,      0,      0,      0,      0,      0,      0,      0,      0,      0,      0
27, 4062, 000040, 009926, -10712, -00162, 000061, -00191, 000128, -00006, 000222, 010153, -10512, 000012, 000063, -00193, 000128, -00001,      0,      0,      0,      0,      0,      0,      0,      0,      0,      0,      0,      0,      0,      0,      0,      0,      0,      0,      0,      0,      0,      0,      0,      0,      0,      0,      0,      0,      0,      0,      0,      0
28, 4218, -00469, 010186, -10349, -00133, 000074, -00197, 000125, 000000, -00293, 010406, -10160, 000034, 000069, -00196, 000125, -00003,      0,      0,      0,      0,      0,      0,      0,      0,      0,      0,      0,      0,      0,      0,      0,      0,      0,      0,      0,      0,      0,      0,      0,      0,      0,      0,      0,      0,      0,      0,      0,      0
29, 4375, -00987, 010434, -09957, -00101, 000084, -00196, 000117, 000001, -00808, 010645, -09778, 000052, 000081, -00196, 000115, -00003,      0,      0,      0,      0,      0,      0,      0,      0,      0,      0,      0,      0,      0,      0,      0,      0,      0,      0,      0,      0,      0,      0,      0,      0,      0,      0,      0,      0,      0,      0,      0,      0
30, 4531, -01491, 010670, -09543, -00063, 000087, -00197, 000107, -00001, -01335, 010861, -09377, 000074, 000086, -00198, 000105, -00002,      0,      0,      0,      0,      0,      0,      0,      0,      0,      0,      0,      0,      0,      0,      0,      0,      0,      0,      0,      0,      0,      0,      0,      0,      0,      0,      0,      0,      0,      0,      0,      0
31, 4687, -02012, 010905, -09085, -00021, 000098, -00204, 000100, 000000, -01881, 011075, -08947, 000094, 000095, -00195, 000098, -00002,      0,      0,      0,      0,      0,      0,      0,      0,      0,      0,      0,      0,      0,      0,      0,      0,      0,      0,      0,      0,      0,      0,      0,      0,      0,      0,      0,      0,      0,      0,      0,      0
32, 4843, -02545, 011129, -08602, 000022, 000106, -00202, 000094, -00001, -02426, 011280, -08482, 000117, 000102, -00199, 000104, -00006,      0,      0,      0,      0,      0,      0,      0,      0,      0,      0,      0,      0,      0,      0,      0,      0,      0,      0,      0,      0,      0,      0,      0,      0,      0,      0,      0,      0,      0,      0,      0,      0
33, 5000, -03090, 011335, -08111, 000056, 000112, -00203, 000090, 000000, -02979, 011481, -07998, 000147, 000112, -00207, 000090, -00001,      0,      0,      0,      0,      0,      0,      0,      0,      0,      0,      0,      0,      0,      0,      0,      0,      0,      0,      0,      0,      0,      0,      0,      0,      0,      0,      0,      0,      0,      0,      0,      0
34, 5156, -03648, 011520, -07613, 000086, 000120, -00207, 000086, 000001, -03528, 011680, -07494, 000193, 000117, -00205, 000083, 000004,      0,      0,      0,      0,      0,      0,      0,      0,      0,      0,      0,      0,      0,      0,      0,      0,      0,      0,      0,      0,      0,      0,      0,      0,      0,      0,      0,      0,      0,      0,      0,      0
35, 5312, -04209, 011677, -07105, 000116, 000122, -00200, 000081, -00003, -04073, 011841, -06976, 000220, 000120, -00199, 000076, -00003,      0,      0,      0,      0,      0,      0,      0,      0,      0,      0,      0,      0,      0,      0,      0,      0,      0,      0,      0,      0,      0,      0,      0,      0,      0,      0,      0,      0,      0,      0,      0,      0
36, 5468, -04758, 011816, -06591, 000142, 000132, -00201, 000072, 000001, -04623, 011986, -06468, 000252, 000130, -00199, 000072, -00011,      0,      0,      0,      0,      0,      0,      0,      0,      0,      0,      0,      0,      0,      0,      0,      0,      0,      0,      0,      0,      0,      0,      0,      0,      0,      0,      0,      0,      0,      0,      0,      0
37, 5624, -05292, 011935, -06063, 000173, 000139, -00204, 000064, -00001, -05154, 012116, -05937, 000293, 000137, -00197, 000064, -00006,      0,      0,      0,      0,      0,      0,      0,      0,      0,      0,      0,      0,      0,      0,      0,      0,      0,      0,      0,      0,      0,      0,      0,      0,      0,      0,      0,      0,      0,      0,      0,      0
38, 5781, -05813, 012040, -05537, 000212, 000144, -00196, 000053, -00001, -05658, 012238, -05385, 000347, 000142, -00197, 000054, -00004,      0,      0,      0,      0,      0,      0,      0,      0,      0,      0,      0,      0,      0,      0,      0,      0,      0,      0,      0,      0,      0,      0,      0,      0,      0,      0,      0,      0,      0,      0,      0,      0
39, 5937, -06303, 012100, -05006, 000242, 000149, -00195, 000047, 000006, -06130, 012320, -04838, 000400, 000151, -00192, 000045, -00003,      0,      0,      0,      0,      0,      0,      0,      0,      0,      0,      0,      0,      0,      0,      0,      0,      0,      0,      0,      0,      0,      0,      0,      0,      0,      0,      0,      0,      0,      0,      0,      0
40, 6093, -06765, 012125, -04484, 000274, 000150, -00188, 000034, 000003, -06577, 012366, -04299, 000443, 000154, -00188, 000038, -00005,      0,      0,      0,      0,      0,      0,      0,      0,      0,      0,      0,      0,      0,      0,      0,      0,      0,      0,      0,      0,      0,      0,      0,      0,      0,      0,      0,      0,      0,      0,      0,      0
41, 6250, -07207, 012101, -03963, 000296, 000159, -00185, 000029, 000001, -07002, 012353, -03765, 000481, 000161, -00185, 000023, -00006,      0,      0,      0,      0,      0,      0,      0,      0,      0,      0,      0,      0,      0,      0,      0,      0,      0,      0,      0,      0,      0,      0,      0,      0,      0,      0,      0,      0,      0,      0,      0,      0
42, 6406, -07612, 012039, -03434, 000319, 000162, -00178, 000017, 000000, -07409, 012284, -03249, 000505, 000163, -00181, 000017, -00003,      0,      0,      0,      0,      0,      0,      0,      0,      0,      0,      0,      0,      0,      0,      0,      0,      0,      0,      0,      0,      0,      0,      0,      0,      0,      0,      0,      0,      0,      0,      0,      0
43, 6562, -07992, 011931, -02922, 000333, 000168, -00179, 000007, 000000, -07799, 012178, -02736, 000516, 000168, -00165, -00001, 000001,      0,      0,      0,      0,      0,      0,      0,      0,      0,      0,      0,      0,      0,      0,      0,      0,      0,      0,      0,      0,      0,      0,      0,      0,      0,      0,      0,      0,      0,      0,      0,      0
44, 6718, -08352, 011781, -02405, 000348, 000170, -00166, -00005, 000003, -08171, 012008, -02229, 000509, 000176, -00163, -00004, 000001,      0,      0,      0,      0,      0,      0,      0,      0,      0,      0,      0,      0,      0,      0,      0,      0,      0,      0,      0,      0,      0,      0,      0,      0,      0,      0,      0,      0,      0,      0,      0,      0
45, 6875, -08693, 011585, -01901, 000337, 000176, -00158, -00015, 000000, -08517, 011802, -01739, 000494, 000177, -00157, -00022, -00001,      0,      0,      0,      0,      0,      0,      0,      0,      0,      0,      0,      0,      0,      0,      0,      0,      0,      0,      0,      0,      0,      0,      0,      0,      0,      0,      0,      0,      0,      0,      0,      0
46, 7031, -09005, 011346, -01388, 000326, 000175, -00147, -00029, 000001, -08851, 011546, -01243, 000473, 000185, -00146, -00030, -00001,      0,      0,      0,      0,      0,      0,      0,      0,      0,      0,      0,      0,      0,      0,      0,      0,      0,      0,      0,      0,      0,      0,      0,      0,      0,      0,      0,      0,      0,      0,      0,      0
