7SL87,BM1804004079,1999
26,8A,18D
1,MPI3p1:I A,,1,A,1.13042183303648000e-004,3.33083075204868350e+000,0.000000e+000,-99999,99998,3.200000e+003,1.000000e+000,S
2,MPI3p1:I B,,2,A,4.65696786530723520e-006,-1.34277011185062970e-001,0.000000e+000,-99999,99998,3.200000e+003,1.000000e+000,S
3,MPI3p1:I C,,3,A,4.79067721446729900e-006,-1.12376621537613460e-001,0.000000e+000,-99999,99998,3.200000e+003,1.000000e+000,S
4,MPI3p1:IN,,4,A,1.15143276831769670e-004,-3.24665415931861650e+000,0.000000e+000,-99999,99998,3.200000e+003,1.000000e+000,S
5,MPV3p1:V A,,5,V,8.25851926353114070e-004,1.89523546741128260e-002,0.000000e+000,-99999,99998,1.500000e+005,1.000000e+002,S
6,MPV3p1:V B,,6,V,8.34081309655793710e-004,2.77040231437666760e-001,0.000000e+000,-99999,99998,1.500000e+005,1.000000e+002,S
7,MPV3p1:V C,,7,V,8.43983645167275150e-004,-9.25917716051429810e-002,0.000000e+000,-99999,99998,1.500000e+005,1.000000e+002,S
8,MPV1p1:V B,,8,V,4.06784084880786300e-006,3.78649981192512030e-001,0.000000e+000,-99999,99998,1.500000e+005,1.000000e+002,S
1,Ln1:Group indicat.:Pickup:phs A,,5017 -1/41/11/1:9405,1
2,Ln1:Group indicat.:Pickup:phs B,,5016 -1/41/11/1:9406,1
3,Ln1:Group indicat.:Pickup:phs C,,5015 -1/41/11/1:9407,1
4,Ln1:Group indicat.:Pickup:gnd,,5014 -1/41/11/1:9408,1
5,Ln1:Group indicat.:Pickup:forward,,5013 -1/41/11/1:9413,1
6,Ln1:Group indicat.:Pickup:backward,,5012 -1/41/11/1:9414,1
7,Ln1:Group indicat.:Pickup:unknown,,5011 -1/41/11/1:9415,1
8,Ln1:Group indicat.:Operate:phs A,,5010 -1/41/12/1:9396,1
9,Ln1:Group indicat.:Operate:phs B,,5009 -1/41/12/1:9397,1
10,Ln1:Group indicat.:Operate:phs C,,5008 -1/41/12/1:9398,1
11,Ln1:ProMon:Closure detec.:Closure,,5007 -1/36/22/22/1:1,1
12,Ln1:ProMon:1pol.open det.:1-pole open:general,,5006 -1/36/23/20/1:9395,1
13,Ln1:50/511:Group indicat.:Pickup:general,,5004 -1/-3/17/10/1:9404,1
14,Ln1:50/511:Group indicat.:Operate:general,,5003 -1/-3/17/11/1:9395,1
15,Ln1:50/511:General:Emergency mode act.,,5005 -1/-3/16/16/1:1,1
16,Ln1:51N-A1:Group indicat.:Pickup:general,,5001 -1/-4/17/10/1:9404,1
17,Ln1:51N-A1:Group indicat.:Operate:general,,5000 -1/-4/17/11/1:9395,1
18,Ln1:51N-A1:General:Emergency mode act.,,5002 -1/-4/16/16/1:1,1
50.0
1
2000.000000,2895
11/08/2012,05:48:31.718995
11/08/2012,05:48:32.218999
ASCII
1.000000
0000000001,0000000000,-00029070,-00014847,00059367,00028078,-00014813,00091936,-00077231,-00093384,0,0,0,0,0,0,0,0,0,0,0,0,0,0,0,0,0,0
0000000002,0000000500,-00028777,-00016680,00054196,00028079,-00029556,00096410,-00066321,-00093312,0,0,0,0,0,0,0,0,0,0,0,0,0,0,0,0,0,0
0000000003,0000001000,-00028518,-00016706,00048206,00028085,-00043566,00098798,-00054106,-00093758,0,0,0,0,0,0,0,0,0,0,0,0,0,0,0,0,0,0
0000000004,0000001500,-00028267,-00016097,00041556,00028091,-00056841,00098660,-00040481,-00093166,0,0,0,0,0,0,0,0,0,0,0,0,0,0,0,0,0,0
0000000005,0000002000,-00028022,-00015568,00035044,00028087,-00068834,00095823,-00025870,-00092610,0,0,0,0,0,0,0,0,0,0,0,0,0,0,0,0,0,0
0000000006,0000002500,-00027848,-00013468,00028515,00028102,-00078993,00090474,-00010837,-00092801,0,0,0,0,0,0,0,0,0,0,0,0,0,0,0,0,0,0
0000000007,0000003000,-00027709,-00009968,00021552,00028113,-00087321,00082926,00004376,-00093084,0,0,0,0,0,0,0,0,0,0,0,0,0,0,0,0,0,0
0000000008,0000003500,-00027599,-00004984,00014075,00028128,-00093774,00073342,00019466,-00092810,0,0,0,0,0,0,0,0,0,0,0,0,0,0,0,0,0,0
0000000009,0000004000,-00027562,00000622,00007083,00028148,-00098149,00062155,00033952,-00092637,0,0,0,0,0,0,0,0,0,0,0,0,0,0,0,0,0,0
0000000010,0000004500,-00027581,00007503,00001239,00028177,-00099935,00049380,00047560,-00092391,0,0,0,0,0,0,0,0,0,0,0,0,0,0,0,0,0,0
0000000011,0000005000,-00027621,00014085,-00005641,00028190,-00099084,00035261,00060220,-00092427,0,0,0,0,0,0,0,0,0,0,0,0,0,0,0,0,0,0
0000000012,0000005500,-00027666,00020713,-00011426,00028200,-00095493,00020222,00071563,-00092809,0,0,0,0,0,0,0,0,0,0,0,0,0,0,0,0,0,0
0000000013,0000006000,-00027779,00027552,-00015323,00028216,-00089657,00005042,00081244,-00092244,0,0,0,0,0,0,0,0,0,0,0,0,0,0,0,0,0,0
0000000014,0000006500,-00027979,00035097,-00018535,00028245,-00081457,-00010466,00089281,-00092545,0,0,0,0,0,0,0,0,0,0,0,0,0,0,0,0,0,0
0000000015,0000007000,-00028190,00042144,-00020641,00028262,-00071074,-00025686,00095073,-00092371,0,0,0,0,0,0,0,0,0,0,0,0,0,0,0,0,0,0
0000000016,0000007500,-00028422,00047843,-00021324,00028260,-00059113,-00040130,00098469,-00093119,0,0,0,0,0,0,0,0,0,0,0,0,0,0,0,0,0,0
0000000017,0000008000,-00028701,00053768,-00020955,00028274,-00045559,-00053803,00099247,-00092791,0,0,0,0,0,0,0,0,0,0,0,0,0,0,0,0,0,0
0000000018,0000008500,-00028988,00060352,-00020884,00028299,-00030954,-00066221,00097483,-00092444,0,0,0,0,0,0,0,0,0,0,0,0,0,0,0,0,0,0
0000000019,0000009000,-00029262,00065397,-00019626,00028307,-00015603,-00077033,00093055,-00092909,0,0,0,0,0,0,0,0,0,0,0,0,0,0,0,0,0,0
0000000020,0000009500,-00029551,00069596,-00016871,00028313,-00000385,-00085792,00086305,-00092553,0,0,0,0,0,0,0,0,0,0,0,0,0,0,0,0,0,0
0000000021,0000010000,-00029877,00072856,-00012473,00028316,00014937,-00092588,00077244,-00093145,0,0,0,0,0,0,0,0,0,0,0,0,0,0,0,0,0,0
0000000022,0000010500,-00030156,00074335,-00007195,00028312,00029673,-00097171,00066438,-00092844,0,0,0,0,0,0,0,0,0,0,0,0,0,0,0,0,0,0
0000000023,0000011000,-00030404,00074203,-00000972,00028313,00043705,-00099520,00054198,-00092954,0,0,0,0,0,0,0,0,0,0,0,0,0,0,0,0,0,0
0000000024,0000011500,-00030665,00073810,00005465,00028310,00056956,-00099323,00040543,-00093418,0,0,0,0,0,0,0,0,0,0,0,0,0,0,0,0,0,0
0000000025,0000012000,-00030910,00073065,00012070,00028304,00068945,-00096344,00025776,-00093674,0,0,0,0,0,0,0,0,0,0,0,0,0,0,0,0,0,0
0000000026,0000012500,-00031090,00071237,00018252,00028294,00079058,-00091074,00010854,-00093072,0,0,0,0,0,0,0,0,0,0,0,0,0,0,0,0,0,0
0000000027,0000013000,-00031227,00067627,00025638,00028276,00087353,-00083504,-00004335,-00093109,0,0,0,0,0,0,0,0,0,0,0,0,0,0,0,0,0,0
0000000028,0000013500,-00031339,00062832,00033054,00028262,00093728,-00073862,-00019389,-00093300,0,0,0,0,0,0,0,0,0,0,0,0,0,0,0,0,0,0
0000000029,0000014000,-00031369,00057265,00039810,00028243,00098101,-00062626,-00033921,-00093957,0,0,0,0,0,0,0,0,0,0,0,0,0,0,0,0,0,0
0000000030,0000014500,-00031335,00050586,00045960,00028232,00099917,-00049914,-00047484,-00093182,0,0,0,0,0,0,0,0,0,0,0,0,0,0,0,0,0,0
0000000031,0000015000,-00031312,00043484,00052645,00028208,00099151,-00035833,-00060177,-00093866,0,0,0,0,0,0,0,0,0,0,0,0,0,0,0,0,0,0
0000000032,0000015500,-00031254,00036839,00058354,00028191,00095466,-00020743,-00071494,-00093410,0,0,0,0,0,0,0,0,0,0,0,0,0,0,0,0,0,0
0000000033,0000016000,-00031154,00030319,00062358,00028178,00089511,-00005554,-00081072,-00093219,0,0,0,0,0,0,0,0,0,0,0,0,0,0,0,0,0,0
0000000034,0000016500,-00030952,00022332,00065695,00028156,00081248,00009941,-00089021,-00093702,0,0,0,0,0,0,0,0,0,0,0,0,0,0,0,0,0,0
0000000035,0000017000,-00030735,00015569,00067671,00028134,00070943,00025103,-00094833,-00093848,0,0,0,0,0,0,0,0,0,0,0,0,0,0,0,0,0,0
0000000036,0000017500,-00030514,00009940,00068328,00028127,00058950,00039626,-00098310,-00093694,0,0,0,0,0,0,0,0,0,0,0,0,0,0,0,0,0,0
0000000037,0000018000,-00030226,00003622,00068044,00028114,00045311,00053332,-00099054,-00093566,0,0,0,0,0,0,0,0,0,0,0,0,0,0,0,0,0,0
0000000038,0000018500,-00029946,-00002542,00067757,00028099,00030617,00065660,-00097113,-00093493,0,0,0,0,0,0,0,0,0,0,0,0,0,0,0,0,0,0
0000000039,0000019000,-00029673,-00007874,00066532,00028089,00015415,00076410,-00092743,-00093594,0,0,0,0,0,0,0,0,0,0,0,0,0,0,0,0,0,0
0000000040,0000019500,-00029387,-00011780,00063711,00028076,00000163,00085279,-00086070,-00093521,0,0,0,0,0,0,0,0,0,0,0,0,0,0,0,0,0,0
0000000041,0000020000,-00029062,-00015108,00059292,00028079,-00015161,00092107,-00077039,-00093430,0,0,0,0,0,0,0,0,0,0,0,0,0,0,0,0,0,0
0000000042,0000020500,-00028769,-00016672,00054071,00028082,-00029937,00096515,-00066025,-00092910,0,0,0,0,0,0,0,0,0,0,0,0,0,0,0,0,0,0
0000000043,0000021000,-00028519,-00016490,00047820,00028087,-00043858,00098780,-00053795,-00093229,0,0,0,0,0,0,0,0,0,0,0,0,0,0,0,0,0,0
0000000044,0000021500,-00028262,-00015965,00041392,00028092,-00057147,00098648,-00040193,-00093248,0,0,0,0,0,0,0,0,0,0,0,0,0,0,0,0,0,0
0000000045,0000022000,-00028009,-00015371,00034561,00028095,-00069102,00095697,-00025508,-00092965,0,0,0,0,0,0,0,0,0,0,0,0,0,0,0,0,0,0
0000000046,0000022500,-00027835,-00013648,00028452,00028101,-00079214,00090270,-00010437,-00092938,0,0,0,0,0,0,0,0,0,0,0,0,0,0,0,0,0,0
0000000047,0000023000,-00027686,-00009521,00021156,00028119,-00087505,00082707,00004746,-00092272,0,0,0,0,0,0,0,0,0,0,0,0,0,0,0,0,0,0
0000000048,0000023500,-00027596,-00004914,00013741,00028139,-00093901,00073117,00019761,-00092600,0,0,0,0,0,0,0,0,0,0,0,0,0,0,0,0,0,0
0000000049,0000024000,-00027561,00000901,00007107,00028147,-00098191,00061826,00034260,-00092892,0,0,0,0,0,0,0,0,0,0,0,0,0,0,0,0,0,0
0000000050,0000024500,-00027592,00007404,00000967,00028173,-00099916,00048955,00047920,-00092472,0,0,0,0,0,0,0,0,0,0,0,0,0,0,0,0,0,0
0000000051,0000025000,-00027638,00014342,-00005654,00028186,-00099097,00034935,00060538,-00092572,0,0,0,0,0,0,0,0,0,0,0,0,0,0,0,0,0,0
0000000052,0000025500,-00027668,00020985,-00011402,00028194,-00095430,00019929,00071782,-00092116,0,0,0,0,0,0,0,0,0,0,0,0,0,0,0,0,0,0
0000000053,0000026000,-00027783,00027701,-00015602,00028216,-00089515,00004695,00081439,-00092691,0,0,0,0,0,0,0,0,0,0,0,0,0,0,0,0,0,0
0000000054,0000026500,-00027978,00035264,-00018766,00028236,-00081153,-00010905,00089423,-00092399,0,0,0,0,0,0,0,0,0,0,0,0,0,0,0,0,0,0
0000000055,0000027000,-00028200,00042337,-00020969,00028257,-00070828,-00025999,00095159,-00092143,0,0,0,0,0,0,0,0,0,0,0,0,0,0,0,0,0,0
0000000056,0000027500,-00028430,00048371,-00021578,00028270,-00058876,-00040376,00098474,-00092498,0,0,0,0,0,0,0,0,0,0,0,0,0,0,0,0,0,0
0000000057,0000028000,-00028695,00054176,-00021154,00028284,-00045280,-00054090,00099249,-00092635,0,0,0,0,0,0,0,0,0,0,0,0,0,0,0,0,0,0
0000000058,0000028500,-00029006,00060440,-00020915,00028301,-00030478,-00066612,00097422,-00092389,0,0,0,0,0,0,0,0,0,0,0,0,0,0,0,0,0,0
0000000059,0000029000,-00029253,00065666,-00019749,00028304,-00015198,-00077279,00092925,-00092188,0,0,0,0,0,0,0,0,0,0,0,0,0,0,0,0,0,0
0000000060,0000029500,-00029554,00069549,-00016751,00028313,-00000080,-00085936,00086144,-00093100,0,0,0,0,0,0,0,0,0,0,0,0,0,0,0,0,0,0
0000000061,0000030000,-00029886,00072741,-00012103,00028316,00015203,-00092664,00077053,-00092434,0,0,0,0,0,0,0,0,0,0,0,0,0,0,0,0,0,0
0000000062,0000030500,-00030176,00074525,-00006911,00028310,00030018,-00097239,00066171,-00092689,0,0,0,0,0,0,0,0,0,0,0,0,0,0,0,0,0,0
0000000063,0000031000,-00030407,00074185,-00000997,00028307,00044000,-00099451,00053866,-00093036,0,0,0,0,0,0,0,0,0,0,0,0,0,0,0,0,0,0
0000000064,0000031500,-00030675,00073849,00005498,00028302,00057262,-00099250,00040221,-00092872,0,0,0,0,0,0,0,0,0,0,0,0,0,0,0,0,0,0
0000000065,0000032000,-00030925,00073065,00012238,00028304,00069149,-00096263,00025549,-00093346,0,0,0,0,0,0,0,0,0,0,0,0,0,0,0,0,0,0
0000000066,0000032500,-00031100,00071240,00018424,00028294,00079292,-00090854,00010469,-00093337,0,0,0,0,0,0,0,0,0,0,0,0,0,0,0,0,0,0
0000000067,0000033000,-00031243,00067688,00025522,00028284,00087529,-00083191,-00004754,-00093674,0,0,0,0,0,0,0,0,0,0,0,0,0,0,0,0,0,0
0000000068,0000033500,-00031328,00062477,00033454,00028263,00093980,-00073626,-00019796,-00093711,0,0,0,0,0,0,0,0,0,0,0,0,0,0,0,0,0,0
0000000069,0000034000,-00031365,00056852,00040206,00028244,00098168,-00062337,-00034184,-00093902,0,0,0,0,0,0,0,0,0,0,0,0,0,0,0,0,0,0
0000000070,0000034500,-00031343,00050197,00046303,00028224,00099947,-00049553,-00047806,-00093912,0,0,0,0,0,0,0,0,0,0,0,0,0,0,0,0,0,0
0000000071,0000035000,-00031300,00043308,00052622,00028201,00098995,-00035372,-00060452,-00093574,0,0,0,0,0,0,0,0,0,0,0,0,0,0,0,0,0,0
0000000072,0000035500,-00031265,00036628,00058554,00028189,00095363,-00020417,-00071696,-00093966,0,0,0,0,0,0,0,0,0,0,0,0,0,0,0,0,0,0
0000000073,0000036000,-00031146,00030112,00062419,00028168,00089418,-00005227,-00081285,-00093730,0,0,0,0,0,0,0,0,0,0,0,0,0,0,0,0,0,0
0000000074,0000036500,-00030945,00022285,00065599,00028151,00081078,00010346,-00089255,-00093210,0,0,0,0,0,0,0,0,0,0,0,0,0,0,0,0,0,0
0000000075,0000037000,-00030731,00015733,00067941,00028134,00070598,00025551,-00094969,-00093575,0,0,0,0,0,0,0,0,0,0,0,0,0,0,0,0,0,0
0000000076,0000037500,-00030499,00009619,00068551,00028126,00058611,00039944,-00098289,-00093420,0,0,0,0,0,0,0,0,0,0,0,0,0,0,0,0,0,0
0000000077,0000038000,-00030223,00003396,00068098,00028111,00045002,00053605,-00099004,-00093776,0,0,0,0,0,0,0,0,0,0,0,0,0,0,0,0,0,0
0000000078,0000038500,-00029936,-00002395,00067946,00028105,00030297,00065972,-00097101,-00093302,0,0,0,0,0,0,0,0,0,0,0,0,0,0,0,0,0,0
0000000079,0000039000,-00029676,-00007833,00066692,00028086,00014987,00076630,-00092564,-00093293,0,0,0,0,0,0,0,0,0,0,0,0,0,0,0,0,0,0
0000000080,0000039500,-00029382,-00011916,00063965,00028078,-00000217,00085418,-00085822,-00093357,0,0,0,0,0,0,0,0,0,0,0,0,0,0,0,0,0,0
0000000081,0000040000,-00029056,-00014902,00059068,00028080,-00015521,00092244,-00076798,-00093485,0,0,0,0,0,0,0,0,0,0,0,0,0,0,0,0,0,0
0000000082,0000040500,-00028766,-00016567,00053525,00028083,-00030275,00096752,-00065904,-00092992,0,0,0,0,0,0,0,0,0,0,0,0,0,0,0,0,0,0
0000000083,0000041000,-00028517,-00016490,00047798,00028084,-00044187,00098812,-00053494,-00093093,0,0,0,0,0,0,0,0,0,0,0,0,0,0,0,0,0,0
0000000084,0000041500,-00028251,-00016211,00041275,00028089,-00057410,00098468,-00039740,-00093011,0,0,0,0,0,0,0,0,0,0,0,0,0,0,0,0,0,0
0000000085,0000042000,-00028015,-00015180,00034672,00028096,-00069337,00095584,-00025137,-00092910,0,0,0,0,0,0,0,0,0,0,0,0,0,0,0,0,0,0
0000000086,0000042500,-00027838,-00013325,00028192,00028105,-00079473,00090242,-00010157,-00092883,0,0,0,0,0,0,0,0,0,0,0,0,0,0,0,0,0,0
0000000087,0000043000,-00027695,-00009650,00021170,00028112,-00087683,00082536,00005081,-00092327,0,0,0,0,0,0,0,0,0,0,0,0,0,0,0,0,0,0
0000000088,0000043500,-00027594,-00004691,00013584,00028130,-00093953,00072716,00020214,-00092318,0,0,0,0,0,0,0,0,0,0,0,0,0,0,0,0,0,0
0000000089,0000044000,-00027565,00000749,00006680,00028155,-00098229,00061535,00034600,-00092600,0,0,0,0,0,0,0,0,0,0,0,0,0,0,0,0,0,0
0000000090,0000044500,-00027594,00007481,00000549,00028165,-00099975,00048746,00048184,-00092381,0,0,0,0,0,0,0,0,0,0,0,0,0,0,0,0,0,0
0000000091,0000045000,-00027626,00014424,-00005857,00028180,-00099043,00034644,00060782,-00092162,0,0,0,0,0,0,0,0,0,0,0,0,0,0,0,0,0,0
0000000092,0000045500,-00027673,00021033,-00011671,00028201,-00095237,00019482,00072060,-00092372,0,0,0,0,0,0,0,0,0,0,0,0,0,0,0,0,0,0
0000000093,0000046000,-00027787,00027835,-00015716,00028219,-00089257,00004302,00081620,-00092481,0,0,0,0,0,0,0,0,0,0,0,0,0,0,0,0,0,0
0000000094,0000046500,-00027986,00035335,-00018570,00028241,-00080974,-00011174,00089552,-00091934,0,0,0,0,0,0,0,0,0,0,0,0,0,0,0,0,0,0
0000000095,0000047000,-00028202,00042250,-00020875,00028250,-00070593,-00026341,00095304,-00092845,0,0,0,0,0,0,0,0,0,0,0,0,0,0,0,0,0,0
0000000096,0000047500,-00028436,00048297,-00021173,00028265,-00058494,-00040794,00098565,-00092571,0,0,0,0,0,0,0,0,0,0,0,0,0,0,0,0,0,0
0000000097,0000048000,-00028711,00054301,-00021081,00028281,-00044873,-00054427,00099216,-00092571,0,0,0,0,0,0,0,0,0,0,0,0,0,0,0,0,0,0
0000000098,0000048500,-00028999,00060564,-00020522,00028301,-00030137,-00066819,00097283,-00092681,0,0,0,0,0,0,0,0,0,0,0,0,0,0,0,0,0,0
0000000099,0000049000,-00029277,00065747,-00019780,00028305,-00014898,-00077545,00092878,-00092753,0,0,0,0,0,0,0,0,0,0,0,0,0,0,0,0,0,0
0000000100,0000049500,-00029563,00069851,-00016591,00028313,00000302,-00086189,00086006,-00092644,0,0,0,0,0,0,0,0,0,0,0,0,0,0,0,0,0,0
0000000101,0000050000,-00029891,00072645,-00011836,00028318,00015593,-00092797,00076769,-00092525,0,0,0,0,0,0,0,0,0,0,0,0,0,0,0,0,0,0
0000000102,0000050500,-00030182,00074199,-00006677,00028315,00030353,-00097295,00065840,-00092890,0,0,0,0,0,0,0,0,0,0,0,0,0,0,0,0,0,0
0000000103,0000051000,-00030422,00074130,-00000901,00028305,00044322,-00099525,00053586,-00093291,0,0,0,0,0,0,0,0,0,0,0,0,0,0,0,0,0,0
0000000104,0000051500,-00030671,00073995,00005936,00028307,00057528,-00099215,00039894,-00092862,0,0,0,0,0,0,0,0,0,0,0,0,0,0,0,0,0,0
0000000105,0000052000,-00030915,00073339,00012313,00028302,00069408,-00096115,00025109,-00092735,0,0,0,0,0,0,0,0,0,0,0,0,0,0,0,0,0,0
0000000106,0000052500,-00031099,00070968,00018449,00028287,00079523,-00090757,00010083,-00093045,0,0,0,0,0,0,0,0,0,0,0,0,0,0,0,0,0,0
0000000107,0000053000,-00031228,00067414,00025862,00028281,00087761,-00083112,-00005083,-00093473,0,0,0,0,0,0,0,0,0,0,0,0,0,0,0,0,0,0
0000000108,0000053500,-00031328,00062434,00033406,00028266,00094121,-00073369,-00020196,-00093410,0,0,0,0,0,0,0,0,0,0,0,0,0,0,0,0,0,0
0000000109,0000054000,-00031377,00056715,00040310,00028244,00098248,-00062043,-00034585,-00093428,0,0,0,0,0,0,0,0,0,0,0,0,0,0,0,0,0,0
0000000110,0000054500,-00031340,00050210,00046383,00028227,00099954,-00049255,-00048144,-00093337,0,0,0,0,0,0,0,0,0,0,0,0,0,0,0,0,0,0
0000000111,0000055000,-00031321,00043289,00052703,00028216,00098926,-00035144,-00060645,-00093045,0,0,0,0,0,0,0,0,0,0,0,0,0,0,0,0,0,0
0000000112,0000055500,-00031258,00036452,00058250,00028190,00095216,-00020048,-00071949,-00093848,0,0,0,0,0,0,0,0,0,0,0,0,0,0,0,0,0,0
0000000113,0000056000,-00031139,00029660,00062580,00028177,00089153,-00004791,-00081521,-00093593,0,0,0,0,0,0,0,0,0,0,0,0,0,0,0,0,0,0
0000000114,0000056500,-00030933,00022308,00065586,00028162,00080880,00010697,-00089474,-00093365,0,0,0,0,0,0,0,0,0,0,0,0,0,0,0,0,0,0
0000000115,0000057000,-00030723,00015430,00067853,00028144,00070402,00025833,-00095093,-00093839,0,0,0,0,0,0,0,0,0,0,0,0,0,0,0,0,0,0
0000000116,0000057500,-00030492,00009598,00068416,00028126,00058360,00040267,-00098381,-00093985,0,0,0,0,0,0,0,0,0,0,0,0,0,0,0,0,0,0
0000000117,0000058000,-00030213,00003491,00067998,00028105,00044601,00053941,-00098949,-00093347,0,0,0,0,0,0,0,0,0,0,0,0,0,0,0,0,0,0
0000000118,0000058500,-00029931,-00002858,00067519,00028101,00029919,00066227,-00096969,-00093457,0,0,0,0,0,0,0,0,0,0,0,0,0,0,0,0,0,0
0000000119,0000059000,-00029665,-00007903,00066414,00028085,00014605,00076909,-00092432,-00094022,0,0,0,0,0,0,0,0,0,0,0,0,0,0,0,0,0,0
0000000120,0000059500,-00029365,-00011937,00063796,00028085,-00000567,00085676,-00085707,-00093120,0,0,0,0,0,0,0,0,0,0,0,0,0,0,0,0,0,0
0000000121,0000060000,-00029054,-00015276,00059042,00028079,-00015891,00092350,-00076517,-00093010,0,0,0,0,0,0,0,0,0,0,0,0,0,0,0,0,0,0
0000000122,0000060500,-00028762,-00016585,00053717,00028076,-00030596,00096749,-00065540,-00093129,0,0,0,0,0,0,0,0,0,0,0,0,0,0,0,0,0,0
0000000123,0000061000,-00028505,-00016452,00047407,00028085,-00044576,00098905,-00053161,-00093311,0,0,0,0,0,0,0,0,0,0,0,0,0,0,0,0,0,0
0000000124,0000061500,-00028239,-00015947,00041143,00028089,-00057725,00098586,-00039514,-00093193,0,0,0,0,0,0,0,0,0,0,0,0,0,0,0,0,0,0
0000000125,0000062000,-00028014,-00015317,00034517,00028102,-00069572,00095483,-00024796,-00092782,0,0,0,0,0,0,0,0,0,0,0,0,0,0,0,0,0,0
0000000126,0000062500,-00027824,-00013144,00027932,00028104,-00079665,00090054,-00009749,-00092664,0,0,0,0,0,0,0,0,0,0,0,0,0,0,0,0,0,0
0000000127,0000063000,-00027687,-00009602,00021017,00028109,-00087890,00082349,00005493,-00092445,0,0,0,0,0,0,0,0,0,0,0,0,0,0,0,0,0,0
0000000128,0000063500,-00027595,-00004515,00013391,00028126,-00094132,00072621,00020488,-00092627,0,0,0,0,0,0,0,0,0,0,0,0,0,0,0,0,0,0
0000000129,0000064000,-00027559,00001146,00006633,00028151,-00098294,00061266,00034917,-00092964,0,0,0,0,0,0,0,0,0,0,0,0,0,0,0,0,0,0
0000000130,0000064500,-00027585,00007647,00000284,00028171,-00099961,00048448,00048467,-00092946,0,0,0,0,0,0,0,0,0,0,0,0,0,0,0,0,0,0
0000000131,0000065000,-00027621,00014736,-00006091,00028175,-00099021,00034279,00061115,-00092818,0,0,0,0,0,0,0,0,0,0,0,0,0,0,0,0,0,0
0000000132,0000065500,-00027672,00021127,-00011492,00028206,-00095131,00019166,00072283,-00092399,0,0,0,0,0,0,0,0,0,0,0,0,0,0,0,0,0,0
